freq_hz,s21_db_median,s21_db_hdi_low,s21_db_hdi_high,gd_ns_median,gd_ns_hdi_low,gd_ns_hdi_high
1000000000.0,-37.91889228939823,-45.21986502721434,-33.47562969323038,0.10641557918023156,-30.6505281756183,38.37802355135072
1001962066.7102681,-38.38170050787349,-44.40187553137834,-32.26560161076425,0.2520948714246321,-22.682054070118344,26.335547258740963
1003924133.4205363,-38.079040133729826,-45.34531533025569,-33.30011795797633,0.5062676096723129,-15.876484259791468,17.296878961257676
1005886200.1308044,-38.53193012351479,-45.75050732492424,-33.17863707129216,1.1629439525994107,-7.7502358614369244,11.693081095535565
1007848266.8410726,-38.19744668926988,-45.21689778247448,-33.0394607530163,1.5621807279196984,-5.788878941329593,8.162196677062841
1009810333.5513407,-38.48342205262824,-45.950758545129204,-33.4719638041701,1.9738939576697656,-7.201983302707415,8.30589617163474
1011772400.2616088,-38.59952596715357,-45.93783580512206,-33.471913951539236,1.9567028396453288,-7.909187232778727,10.553797237272612
1013734466.9718771,-38.267293642723686,-45.458342480702704,-33.311216777634904,1.8093042186563033,-7.548145983975703,11.391700164420657
1015696533.6821452,-38.29436301597559,-45.31190146287755,-33.30886601874048,1.6667251574716153,-8.86440490275903,10.952176846793527
1017658600.3924134,-38.03266861180272,-45.87222501003637,-33.244295191473434,1.6919609130996744,-7.641399949779602,12.504771063347501
1019620667.1026815,-38.279000037663984,-47.25483470588263,-33.12915513537882,1.5445878171370626,-7.80975867815762,12.2942440296175
1021582733.8129497,-38.08635114432185,-45.36489910291684,-32.85010259294936,1.445957667643322,-7.216675869485116,13.0604088086899
1023544800.5232178,-38.09221669819755,-45.768371133615375,-33.27615630566894,1.1761801461402173,-8.751749054983895,10.797967150606462
1025506867.2334859,-37.84517815108825,-44.26579587881706,-32.34212337588032,0.9233062298293053,-9.031783796956928,11.273838566746432
1027468933.9437541,-38.62788009516369,-46.11759389405849,-32.31084546257914,0.9627902390003795,-7.653297996868719,11.50273903675587
1029431000.6540222,-38.115027864380465,-45.220800359148264,-33.019811079188656,0.954286224981415,-7.802878215148453,10.28451481078956
1031393067.3642904,-37.96535067050007,-44.63747221986681,-33.23235480827627,1.5945670173895397,-7.4419594941867135,10.549409214531769
1033355134.0745585,-38.14319233538039,-46.718904949031824,-33.44788301812517,1.619592480905288,-7.484573760413143,10.622783802769614
1035317200.7848266,-38.23010617279094,-46.39494993004349,-32.833633038805814,1.7591837807100124,-8.649100116242725,9.28486884164907
1037279267.4950948,-37.92046721084955,-44.13138492373015,-33.18927827908352,1.421293989880804,-7.799220278273962,9.822972295260422
1039241334.205363,-37.614982452874614,-44.21449645342729,-32.50617712691755,1.215244497719628,-7.110192048695372,9.979101239301764
1041203400.9156312,-37.267701393308414,-44.0288666125371,-32.74249266442483,1.1743390764848676,-8.287381894377155,8.88390011945851
1043165467.6258993,-37.47202419639973,-43.55621561173372,-32.713192663909865,0.9395568262905067,-7.261572777475628,9.497733649985356
1045127534.3361675,-37.20826346065938,-43.59604066081303,-32.33588731712919,1.1646668883938802,-6.087360395676274,9.203643226494616
1047089601.0464356,-37.43999419721166,-42.947611590017274,-31.739171817941084,0.904335769459373,-7.122731189539808,9.330385589444585
1049051667.7567037,-36.97559327906254,-42.57426436552856,-32.73053010051858,0.8614779093976637,-7.30667563528507,10.190273660280877
1051013734.4669719,-37.4865918499465,-44.47625762439385,-32.691719354467125,0.5779753101918979,-6.606427248896202,10.962929089648528
1052975801.17724,-36.97749472383332,-42.414722316624434,-32.40164820083793,0.9646990477410091,-7.5266746082836615,9.574809402065661
1054937867.8875082,-37.24968508248601,-42.572505862672294,-32.94491773261362,0.8753497396653847,-6.456757311249072,10.942047118698854
1056899934.5977763,-37.47643148962901,-42.634873514754844,-31.93677513832627,0.9019454882014497,-7.384921543408351,9.92101979213589
1058862001.3080444,-37.85985726378509,-44.5098749789912,-32.509025483193625,1.1408847225610244,-7.437666142737919,9.35411944772929
1060824068.0183126,-38.286738236651715,-44.99434561823602,-33.2463286361634,1.0225899127028883,-7.167970830057289,10.143814139016461
1062786134.7285807,-37.90905360979447,-44.617412986173726,-33.15977902417658,1.7829558687900704,-7.318489326832741,10.645763165120998
1064748201.438849,-38.57016842668103,-45.92310881309119,-33.5050333943841,1.4789267458579956,-8.583790235703074,9.960262349583171
1066710268.1491171,-38.7850609301668,-45.56911042991917,-31.86659931857286,1.5145309600957246,-7.578539490826389,10.426772963910272
1068672334.8593853,-38.30789262994767,-45.13461656458753,-32.79525146565523,1.5209869679614179,-6.975115054459403,9.911004446566668
1070634401.5696534,-38.54822276099341,-45.281142067011054,-32.936132709577905,1.3235516599147648,-8.091377934996691,9.422177333047799
1072596468.2799215,-37.68516668034725,-44.39352556230585,-33.39736161089675,1.2219447196122424,-6.747706642194046,9.402368610117376
1074558534.9901896,-37.22079194581825,-43.562559310787435,-32.223669161506386,1.2244036668365736,-6.863454100362634,9.82627830398415
1076520601.7004578,-37.40993806205834,-43.65550671330127,-31.98165926746681,1.548011806056663,-7.816256606905272,8.669886111683809
1078482668.410726,-36.87143517595299,-42.15779773556497,-32.50071580188203,1.4313092670355494,-8.046587122832065,8.612455961575092
1080444735.120994,-36.762520565316805,-42.58511281429598,-32.60937164909663,1.2947835027822876,-7.055570009387577,9.76063777693479
1082406801.8312624,-36.58152299874742,-42.11584321677265,-32.56299918880953,1.1044707475310238,-7.020532798360843,9.113676830068714
1084368868.5415304,-36.14826050530677,-42.238901954898715,-32.46414846966045,1.2837813234389985,-7.050606311134261,8.950461881006573
1086330935.2517986,-36.55104790664617,-42.9818678244666,-32.43365496750296,1.0082825100083221,-6.104909399051235,9.379068806028867
1088293001.9620667,-36.31336794918365,-41.43006417177478,-31.627944482305583,1.0161082181132548,-6.450724694494535,8.901643955434825
1090255068.672335,-36.16698587926754,-41.029544737300256,-31.988090522420908,0.9068085423889152,-7.041357967198947,8.562333835661201
1092217135.382603,-36.58018916152325,-42.639432648813425,-32.40794933631698,1.3464718060151153,-6.8900072803566825,8.368776929685389
1094179202.0928712,-36.92576359683092,-42.691544488846056,-32.64710513496151,0.8246085444021218,-6.985031487178712,10.54982326115206
1096141268.8031392,-37.25612318372424,-43.25840976714207,-32.06836503754214,1.4900046555966246,-7.30410845029732,9.985693766681516
1098103335.5134075,-37.91716678414292,-43.79057566198961,-32.85832867687106,1.56428389172905,-7.9884127282436594,9.174087106112017
1100065402.2236757,-37.889375062103994,-44.18942637364524,-32.80222146632787,1.5448205826725343,-7.328668267319046,10.187995144902837
1102027468.9339437,-37.98089568904327,-44.464924952269854,-33.20561906402833,1.4102789726202427,-7.823677263707941,9.71931915002106
1103989535.644212,-38.58915937789649,-44.914810146278356,-33.604662505821054,1.259091570309566,-7.129852529132949,10.889913111582501
1105951602.35448,-38.054761695214566,-45.38987099434857,-33.306317385879225,1.2486135376249168,-7.930684300910784,10.69159633944956
1107913669.0647483,-38.57905630727463,-44.9369084836373,-33.05856998306527,0.9270626489567033,-8.513642980264446,11.062696237724406
1109875735.7750163,-38.02197320817783,-45.21866119069047,-33.06708468371486,0.768271092896878,-7.991200100044365,13.768297473143578
1111837802.4852846,-38.744114598894896,-45.28614371556475,-32.8740077758404,1.367627380687045,-9.128548561725506,11.504206610867966
1113799869.1955526,-38.537222222158064,-44.67182088839428,-32.96659366026764,1.0973984651611657,-9.094811747301375,10.631191778118197
1115761935.9058208,-38.846570687801986,-47.80112102263515,-33.9479193162638,0.9694765087440896,-7.8380519287587225,11.625316544382994
1117724002.6160889,-38.445762037916325,-44.79754133595766,-33.425382478955314,1.0050686657390948,-8.638774029073796,10.912586305662355
1119686069.3263571,-38.61227955717909,-45.949923983394044,-33.83325939668149,1.3088840483211008,-8.101878582019667,12.970107367331877
1121648136.0366251,-38.600988240948716,-44.977394012007885,-33.128954136834714,1.2837013255730634,-9.153550698627512,11.495657347946317
1123610202.7468934,-38.232686884096616,-44.03406605297816,-33.29542525569853,1.7017443407962374,-10.58687521288505,10.072350872964103
1125572269.4571614,-38.60177476563142,-45.89462934290673,-34.01972027423049,1.195479941060608,-8.979345853841279,11.065942421995896
1127534336.1674297,-38.17643608046224,-45.496637870244285,-33.26689939143575,1.5291601432039847,-6.961722716655284,13.020776681425797
1129496402.877698,-38.14302345515108,-45.17468489157587,-33.32271127460939,1.2607827366762363,-9.154457162635309,9.711913174188014
1131458469.587966,-37.76618347747636,-45.09050299580572,-33.25200839615135,1.1103552923476272,-8.76151233537017,9.45016486363055
1133420536.2982342,-37.44715912331766,-43.69290850993754,-33.18038331925696,1.1287050691952807,-7.6612355233596805,10.629325736848182
1135382603.0085022,-37.71273524017228,-43.73248386208748,-32.894099205149615,0.8636174889126913,-8.573056054905791,9.598719063156055
1137344669.7187705,-37.27215140095383,-43.095727645128186,-32.945447327728814,1.068591034479539,-7.737412756284017,9.716943797441504
1139306736.4290385,-37.746280242950235,-44.56061763249171,-33.682363906484476,1.1385402962120645,-8.360714986021373,10.138253765127704
1141268803.1393068,-38.01727532922611,-43.48861927279354,-32.52279894510691,0.879493589810262,-8.265279732492433,9.43402779908444
1143230869.8495748,-37.41057245014737,-43.1441252131992,-32.813075399745145,1.1401952252174188,-6.967397530437149,11.137105371866715
1145192936.559843,-37.34217084906474,-41.90778539000604,-32.772417770610375,1.4060035461685887,-7.203227805269576,9.834537034331989
1147155003.270111,-37.36418720786526,-42.54300599763914,-33.09902829866574,1.6751074542499391,-7.032226353946141,10.255516528474704
1149117069.9803793,-37.226001374547224,-43.82673963877104,-33.02783962781704,1.4219303496755393,-7.9400694878693345,9.993708209504316
1151079136.6906476,-37.477978058093214,-43.26586791526023,-33.29414441510434,1.4786970835494844,-7.415158088806303,10.570109091278265
1153041203.4009156,-37.78310936020311,-42.53477084544775,-32.82370836998876,1.360486770871981,-8.72518821316091,8.893957493183672
1155003270.111184,-37.8073407595497,-44.533125547449,-32.69802992536231,0.9839916529809085,-7.784010401873391,9.732388401904393
1156965336.821452,-37.7976805464577,-43.78242774405506,-32.85608963514512,1.100462225577357,-7.232997550427044,10.745450757312096
1158927403.5317202,-37.73807795325324,-43.36318090058391,-33.10635794647828,1.4470720661760412,-6.935074525693552,10.495303995484418
1160889470.2419882,-38.05394562926254,-44.45568010699631,-33.63929723611941,0.5358921615564709,-8.62812208121504,9.072393435402219
1162851536.9522564,-37.73282019880768,-44.551204151014616,-33.607032022094785,0.8353643792649033,-9.162550197445778,8.858919760178484
1164813603.6625245,-38.285119253120335,-44.44492053014826,-33.04497697997682,1.2717839608620516,-7.298611480668515,10.37828583542817
1166775670.3727927,-37.26834258738515,-43.33435084625533,-33.27931181801099,1.3605437897499322,-6.95768574127964,9.472744623003516
1168737737.0830607,-37.093878941605,-42.77520488733762,-33.36479302067132,1.3400848436497816,-6.109370608998402,9.578428417864787
1170699803.793329,-36.99668451826141,-42.67135227915774,-32.55500880917787,1.4903060587524743,-6.606464748336827,10.332650526793511
1172661870.5035973,-36.79095238773928,-42.803911333409744,-33.339992436022065,1.0230117031154151,-7.6692997895519115,9.620902945667922
1174623937.2138653,-37.061107885497705,-42.05895238073127,-32.686607253202816,1.5604889271373987,-7.580535802754949,8.7645287047179
1176586003.9241333,-36.873161122681054,-42.924279830050516,-32.64115719582413,1.374581166343827,-7.915000806288634,8.70022484182082
1178548070.6344016,-37.06367293947159,-42.46808998550284,-32.921247457897415,1.241488139530586,-6.487140128209086,9.685497286110213
1180510137.3446698,-37.09562350027464,-41.51410347437066,-32.629406758005935,1.1509174392600983,-7.384583888344842,10.003565719075928
1182472204.0549378,-37.16381906968371,-42.14744431187714,-31.983269676968604,1.0957472863831412,-7.679154524811344,10.288342859416163
1184434270.765206,-37.03720145277093,-43.17043053238837,-32.92124476675973,1.461782306467129,-7.148999817959329,10.20499649929982
1186396337.475474,-37.825550432847336,-43.96647421980624,-33.54482037501551,1.3753968497253617,-6.5987705947639865,10.710366902255757
1188358404.1857424,-37.96581300714695,-44.00711514930535,-33.18644252185965,0.9727134722418863,-8.357791708880836,9.05475884777342
1190320470.8960104,-38.12007691057104,-43.882828463664424,-32.49040902418595,1.4662279174335255,-8.614009914519194,10.750037261009652
1192282537.6062787,-37.89460113115278,-44.658360071823836,-33.60651080400358,0.9020432181942958,-7.067305472438005,11.427077134246149
1194244604.3165467,-37.845703651634224,-44.61483851986087,-33.144168151597285,1.6695689815023307,-7.738977188006952,10.110868231604517
1196206671.026815,-38.53157500964595,-44.77313292861389,-33.92198515422032,2.014035734220223,-7.411250989292417,10.625654550018265
1198168737.737083,-37.98140452399746,-43.654957922204375,-33.33288765025119,1.8469607581617742,-7.099234559665112,10.940426722040698
1200130804.4473512,-38.41600302529845,-44.495170946869756,-33.362075660688575,1.8856251891551858,-6.419309581231555,10.867416398058635
1202092871.1576195,-38.037994039669165,-43.7752247406408,-33.33976992391809,1.613578519684086,-7.290888176400098,11.528646580118787
1204054937.8678875,-38.21267816538667,-45.08899295838758,-33.08349604866292,1.367410900833958,-7.011036169692222,11.0954909932391
1206017004.5781558,-38.050796067038064,-43.93351188095838,-33.79027872345653,1.2886325411375146,-7.611304657896034,11.087759258776305
1207979071.2884238,-38.059187636379924,-44.3184137596019,-33.33819424860824,0.9568575383988553,-8.635019188025751,9.966951398907515
1209941137.998692,-37.95950346896383,-43.71550295409683,-33.80319661157283,0.46483778656661917,-10.281942907140666,9.48673324372382
1211903204.70896,-38.09368786217071,-44.255084029067824,-33.40065931780555,0.29852808966389166,-8.719763501915548,10.805960641574524
1213865271.4192283,-38.090283760857815,-45.46446761518251,-33.74062175738155,0.5431660691157728,-8.446140946673763,10.877202082894819
1215827338.1294963,-38.011826841324115,-44.836443804224245,-32.58461354792437,0.8092328062447611,-7.320616846031676,12.018794411440359
1217789404.8397646,-37.8903000919415,-44.35292681895069,-33.1253490292906,1.183203048203104,-7.986525265687919,10.924799861579395
1219751471.5500326,-38.18471592784464,-44.15650464365618,-33.786805894646776,1.2969192452325145,-8.220379265411578,10.835491574404205
1221713538.2603009,-38.546281602224106,-45.02180813382957,-33.156729961286466,1.3260635153918594,-9.205537938486533,10.26221508338691
1223675604.9705691,-38.473306058161604,-44.30323785905355,-33.76633640423361,1.2448387677193402,-9.791175551181036,9.892890775792797
1225637671.6808372,-39.07685003585932,-45.44343374367101,-34.20414270146321,1.1854360020062495,-8.366616141735953,11.401674613865984
1227599738.3911052,-38.4065541468204,-45.38117831565007,-33.6178593830096,1.218067412307637,-7.77850558133392,12.028697634901963
1229561805.1013734,-38.07479444481788,-44.76582413476386,-33.388531229839565,1.277768221669386,-8.825286247823113,10.803338122770482
1231523871.8116417,-38.05611257273263,-44.56352377476335,-33.665352340882414,1.021994388657771,-8.039690849714097,10.629183299464037
1233485938.5219097,-38.16196416084901,-43.473125942231654,-33.2560088374018,1.455337855090524,-9.132820819897807,10.556210302256467
1235448005.232178,-38.15803513782582,-45.6192671735153,-33.79936394784055,1.8471667594513896,-6.689556362457071,12.047913630861919
1237410071.942446,-38.10840582990714,-44.18539341508782,-33.61043587186558,1.9529529196900357,-8.716241309721013,11.771929408043164
1239372138.6527143,-38.2945168371356,-45.16847855676535,-34.332164520209,1.6291631566435827,-7.994863382325522,11.535096202536339
1241334205.3629823,-37.689592185668616,-44.12935629771678,-33.9620962629127,1.1628469669311947,-10.189350242457518,9.610581548379722
1243296272.0732505,-38.57538070849955,-45.638740740644145,-34.02269672484134,1.3033314241476486,-8.69067079456286,12.857046414030275
1245258338.7835186,-38.461791151059515,-44.20890901911844,-33.27120957018144,0.9450745461646943,-9.181507065162108,11.222412499026397
1247220405.4937868,-38.272249892451136,-44.10822796970362,-33.401810545590386,0.5524226557007932,-8.663524558814858,9.6547822738389
1249182472.2040548,-38.357694923472295,-44.70284428524885,-33.32604230942009,0.41590535210018875,-8.726387872166017,10.96857907767494
1251144538.914323,-38.28421314583335,-45.06671590768772,-33.17602959052178,0.9292447528641807,-10.452522838941341,10.244536821668051
1253106605.6245914,-38.61754376659819,-44.86412376421398,-34.04947701041371,0.9797297153855258,-9.195263527885123,10.166052082723565
1255068672.3348594,-38.2411165454002,-44.91006714573406,-33.76173871712118,1.265410675876236,-8.735699562407166,11.222679143328332
1257030739.0451276,-38.06921685025086,-44.559231811683205,-33.273069712522286,1.5831224907686687,-9.495455299542224,10.930217015004024
1258992805.7553957,-38.65954410816534,-44.544124942246064,-32.78999768381662,1.6628256035248588,-9.036975912040527,11.452039594612147
1260954872.465664,-38.48765884270397,-45.04910207270227,-33.15524657730855,0.9641468822681423,-7.76585195801043,12.099873101115026
1262916939.175932,-38.225430349274745,-44.052750169865824,-33.42322547332783,1.2889942398822558,-8.564496714996375,11.099778735141198
1264879005.8862002,-38.143153212241984,-45.41498681454544,-33.47732613984999,1.7002834589949656,-8.7605085140498,10.600027947110151
1266841072.5964682,-37.699484271830556,-44.48738839339442,-33.72604821443452,1.6124775210259128,-9.059911645805895,10.97262867584836
1268803139.3067365,-38.5417077284406,-45.44429291450407,-33.83688894110386,1.551455018001961,-8.769500462485032,11.42823203800617
1270765206.0170045,-38.12447991418955,-44.72253042400893,-33.967400330751715,0.957125157645274,-9.488645688141332,11.48725904908216
1272727272.7272727,-38.19733532578827,-44.19869436973401,-34.07744169012191,0.9813926643068713,-8.548965427514275,12.416756395010374
1274689339.437541,-38.36239266926789,-45.101778799791326,-33.55770756324767,1.074258716716367,-9.272604433228135,11.754993845031606
1276651406.147809,-38.10467575838281,-45.79168945555699,-33.51777876480408,1.4069584674801088,-9.246553585194658,11.831699083113019
1278613472.858077,-38.520973791392784,-45.17327273747856,-32.33429702379262,0.9885031211654973,-7.323464483059524,12.903828914134133
1280575539.5683453,-38.63888051358285,-45.73520881262401,-33.7165535928484,1.0953421891247968,-7.960361383451151,9.311413315063884
1282537606.2786136,-38.35382214372494,-46.30399260912811,-33.51446574057583,1.2113604282824602,-7.907088173783777,12.508034352789357
1284499672.9888816,-38.299224073678985,-44.60523945730724,-32.60357090855202,0.8857997237830204,-9.077130546434724,13.196968231535536
1286461739.6991498,-38.157132881693414,-44.817340877858776,-32.811024296350546,1.502405172257008,-10.684341120944657,11.530730868914969
1288423806.4094179,-38.334709656048545,-45.10572599552545,-33.77318823752091,1.4324846500731623,-9.2845626706631,12.424544749858892
1290385873.1196861,-38.561991810017915,-45.84448682099183,-32.93499930308469,1.3929900015313847,-8.572053971050055,11.24422639073289
1292347939.8299541,-38.02441140754773,-44.20761721908411,-33.60433830466464,1.7168851215603373,-9.87610287724687,10.481666080715783
