freq_hz,s21_db_median,s21_db_hdi_low,s21_db_hdi_high,gd_ns_median,gd_ns_hdi_low,gd_ns_hdi_high
1000000000.0,-35.87752981439502,-41.41750840026316,-32.259992978734374,0.08473674466529668,-30.569704862752477,27.449324321890728
1001962066.7102681,-37.21469059545357,-43.142458906538664,-32.40569452128083,0.6549288541403814,-19.025665773437172,20.67408716221332
1003924133.4205363,-37.486731268988606,-44.314293129116805,-33.19922759014689,0.7529790710376578,-12.19708385838542,13.700036245397145
1005886200.1308044,-38.78234606377228,-45.06608828699228,-33.43496633823917,1.1245846815430336,-7.0758837115492,9.296053731350922
1007848266.8410726,-38.49330962908522,-45.69156891180764,-33.43193296111825,1.2237860563904788,-4.622652660914284,8.627646287264753
1009810333.5513407,-38.87086288795952,-45.80891437824577,-33.443784423486036,1.3459202309745213,-5.87888569355927,9.193545630277336
1011772400.2616088,-38.777543600082964,-45.04450310823394,-33.730116793656336,1.509472186930537,-7.4750475534954655,9.709015503288041
1013734466.9718771,-38.41476812671044,-46.12659837925064,-33.93425238911312,1.5185412207284394,-6.461226767096171,11.133074513900969
1015696533.6821452,-38.334723760076365,-45.19714279962507,-32.85543163068628,1.4052937122685067,-7.237286540012812,11.74501439344619
1017658600.3924134,-38.41120073130321,-44.82521242183826,-32.70803640727752,1.2945366080945302,-7.535223852142704,10.938478828835152
1019620667.1026815,-37.55995653043561,-44.134305581555225,-32.42860250494501,0.6804715678505642,-7.89361493141848,11.182577425842187
1021582733.8129497,-37.261074884956614,-44.62429247494366,-33.20119603178102,0.7131349448507966,-9.867807599373998,10.71763941615979
1023544800.5232178,-37.41777216501852,-44.09422921946047,-33.22956328060725,0.5180838255889217,-8.237582180710193,11.510257552042242
1025506867.2334859,-37.0813162722242,-43.27546513856242,-32.58306777358581,0.9140109715724257,-6.810234887622179,9.780947605975971
1027468933.9437541,-37.478630080364525,-43.27529851258753,-32.7128445673989,1.1564680766650555,-6.922328068361662,9.88707316254484
1029431000.6540222,-37.36956747441879,-44.706639390618804,-32.73296601312134,0.9761697567170823,-8.473332311058849,9.114973411855196
1031393067.3642904,-37.525895357209365,-42.40067024842971,-32.937849082346176,0.8980136894918906,-7.219649384613758,10.947022792347802
1033355134.0745585,-37.63555583902534,-43.297249745169154,-33.26980888283936,0.9548312321387974,-6.87057735771012,12.313853274810965
1035317200.7848266,-37.68655882709925,-44.5270068383417,-32.743236431599875,1.0564061709887016,-8.55653132165298,10.56440713916108
1037279267.4950948,-38.17414911626035,-44.21461707197709,-32.80051471984096,1.145258493309428,-9.142805864072095,9.81277837594708
1039241334.205363,-37.30503526788536,-45.359810437440416,-33.34157757061612,1.2992438505568715,-8.056491557406675,12.865372468209088
1041203400.9156312,-37.9275577887055,-44.546726526543395,-33.249883037887386,1.1036124582936337,-9.08197905685369,11.647140227283874
1043165467.6258993,-38.31646453410055,-47.273622910084036,-33.431545925930166,1.2541224243524611,-8.139420865611342,11.406526788226058
1045127534.3361675,-38.43689059423375,-45.19835600618983,-32.93326243478142,1.5105694603258788,-8.28322807644632,10.794012507456221
1047089601.0464356,-38.78158177060471,-46.2800705354367,-33.89001768115421,1.4180048551929678,-9.083882697498169,12.502524108728672
1049051667.7567037,-38.057195807984215,-45.70671559752226,-33.35898766603996,1.7564077462389798,-9.43809940084784,12.150143994093526
1051013734.4669719,-37.92923034509484,-46.09316881371445,-32.7517486534228,1.3545522973731725,-8.378391083877878,12.561752589542342
1052975801.17724,-38.3014281998793,-45.002871427112666,-33.495612918717924,1.1539858685602793,-9.27273253251765,12.79738172252714
1054937867.8875082,-38.57362504773625,-46.02581988531696,-33.26995935120506,0.6003900955279644,-8.8019233787343,10.899539293231728
1056899934.5977763,-38.85211075758218,-44.89602672162252,-32.7116317064599,0.855705620226298,-9.581462512504704,11.470533041101804
1058862001.3080444,-38.46364497216226,-46.252767033190345,-33.76595644841697,1.0255464158731533,-9.812172883514528,12.955721334596198
1060824068.0183126,-38.39977511186476,-46.95167378243233,-33.20874196946666,0.8739251385416629,-10.508508912265189,12.702021786687373
1062786134.7285807,-38.49742840103339,-44.86273816127684,-33.32876703930891,1.2984355677969255,-8.404230815886917,12.544988526384364
1064748201.438849,-38.25842130940382,-45.38620728016887,-33.27098116803392,1.3872956720840393,-9.588508098009079,10.738588203347641
1066710268.1491171,-38.34076205314024,-45.28174601113346,-33.82568608693668,0.9992039119563423,-10.571938114245546,9.94032499517344
1068672334.8593853,-38.609654686951174,-46.42726264690546,-33.19468403323945,1.1201333914671636,-8.733806332798684,12.153515257410044
1070634401.5696534,-38.27711141319634,-44.88491215262336,-33.35003614908048,0.9623519616785092,-8.61804018293569,12.975929825022043
1072596468.2799215,-37.821882100744965,-44.57821944474449,-32.895579123810116,1.0818826682394242,-9.590337457498771,11.013962188410964
1074558534.9901896,-37.950696776511656,-44.49143337665829,-33.22278538176597,1.1289139123570362,-9.903087261775523,11.95517698745813
1076520601.7004578,-37.60447054346845,-44.89641876682165,-33.04966191964964,0.7300954145299763,-9.015099597360093,11.449701473105948
1078482668.410726,-37.83149881636383,-44.81713364622253,-32.500947412433405,0.7410034983063771,-8.238737957113651,10.528664037037515
1080444735.120994,-37.95998784513771,-45.24749556797153,-33.52938643982267,0.8615752267108377,-8.964618620641648,10.534706055934198
1082406801.8312624,-38.42340709899629,-46.43506213628253,-33.03115058085615,1.1849655693220937,-8.313232829317757,10.78839083289231
1084368868.5415304,-38.12462257652489,-45.19182586430431,-33.25667048143599,1.5529761943840623,-8.329549160517209,10.543735653570556
1086330935.2517986,-38.36516522478054,-46.078797677371455,-32.77134204191899,1.362557582107522,-6.954311211103284,11.694843943093156
1088293001.9620667,-38.032659266760874,-45.68482250906014,-33.21494622656827,1.692233656134445,-9.179901678159442,10.466259043902761
1090255068.672335,-37.92103226426057,-45.735643888373374,-32.94476439396648,1.368887358845531,-8.477817437069744,10.437905434844275
1092217135.382603,-37.92957622593473,-44.85488772090649,-33.08498610829596,1.1966924057102637,-7.3795286997755785,12.20898094470254
1094179202.0928712,-38.00817932647672,-45.5904329597483,-32.80524785833945,1.144198023716247,-7.7988467092758516,11.557533741076274
1096141268.8031392,-37.771105924609344,-43.980120997372296,-32.90351191576384,1.0106554457904557,-9.627639130459412,9.91856652834205
1098103335.5134075,-37.84251083995662,-44.294215210478846,-32.14739922889467,0.653017084510935,-9.294014915060245,9.49372732794426
1100065402.2236757,-37.54869786618097,-44.95031881588861,-32.95226850225901,0.39407992936707137,-9.454292974436916,9.831393162046718
1102027468.9339437,-37.80464763238989,-44.48507617359493,-33.04301674450351,1.014863369456268,-7.975468173539851,10.950608737347899
1103989535.644212,-38.29298414621603,-45.57690001936889,-32.61212964604671,1.5043825545278444,-7.814768100316342,10.838427078752453
1105951602.35448,-38.02252110498527,-44.260863350520616,-33.231796365953684,1.679259118019718,-6.791380655877008,11.684263075496048
1107913669.0647483,-38.17959169336605,-45.1722532334212,-32.946878446278596,1.7596122518670425,-8.286353240107493,9.585772702766077
1109875735.7750163,-37.68013931736195,-44.73942496096064,-33.12344791594842,1.6771298544782645,-7.568154438609422,11.882021750233495
1111837802.4852846,-37.65546943660958,-43.37207904332574,-32.77905901177896,1.3268396400951743,-8.372849731912444,10.457053086385283
1113799869.1955526,-37.530260983894344,-44.0689104068802,-32.40576053115519,1.1585575629941558,-8.813747558865062,11.693382398122102
1115761935.9058208,-37.468109648474794,-42.65206596220109,-31.42623080516257,0.8006552134686136,-8.327831796159712,10.854663350903204
1117724002.6160889,-37.24352150465134,-44.801467537869186,-32.75880660501237,0.5985673401557952,-8.095106890835305,10.519995753557142
1119686069.3263571,-37.74950373973503,-44.64622395665714,-33.37678369392677,0.6701692475084042,-8.50126993043507,8.782743391424944
1121648136.0366251,-37.54624426272822,-43.6948075563545,-32.90549420166138,0.8456695767993294,-8.065572195229555,8.508517592093021
1123610202.7468934,-37.62186179099512,-43.85119390138229,-32.35881208358941,0.4240701811008738,-7.79189132767722,11.111772439800742
1125572269.4571614,-37.76484727231145,-44.18020537553798,-32.60045646174697,0.591694681391809,-8.120692859582704,9.406907262657894
1127534336.1674297,-37.09303191539897,-43.03922884867618,-33.04623021420633,0.6942246700203327,-8.796698236478836,9.466092496935362
1129496402.877698,-37.332981608394576,-43.003098145776434,-32.520922859947504,0.6531076671784575,-7.9870314434717535,8.567394000283153
1131458469.587966,-37.3624902331718,-43.23597998270677,-32.73284497589435,0.9769990033978402,-8.66766569075528,8.664588259659546
1133420536.2982342,-37.11736969041214,-42.88754650818356,-32.22799735538458,1.4777551362736285,-8.39743899065503,11.131658247593109
1135382603.0085022,-37.306437972637525,-42.78320103044523,-32.81217662629524,1.7731986886961755,-6.834249297437314,10.894218355081875
1137344669.7187705,-37.54655622405383,-42.985961827620336,-32.86396440316915,1.6383721658911736,-6.758345215346594,10.381837791655052
1139306736.4290385,-37.62172470940594,-45.81280555179991,-33.10300013477226,1.8438645934190554,-5.537735152685523,12.151090501607593
1141268803.1393068,-37.31020437520006,-42.94614263991335,-32.44788052117414,1.8747293850789317,-6.9227659217748165,9.683764805746954
1143230869.8495748,-37.650439819231025,-43.37034601985568,-31.897964305306388,1.53410874104124,-6.193985156767013,11.992901229395004
1145192936.559843,-37.167704959376024,-44.136974314673914,-32.86520291986987,1.104926130686863,-7.804811469979841,9.627413380569976
1147155003.270111,-37.07482950435309,-43.32396288233356,-33.02965099636254,0.9481487583543788,-7.994145219908267,9.782107083997042
1149117069.9803793,-37.26842696693251,-43.28393942752771,-32.323954075457905,0.7126946408447677,-8.034190108048996,9.07479590244222
1151079136.6906476,-37.458963015643704,-44.18510489811396,-32.82235185216442,1.1714780690982833,-7.104196846425003,10.112708454226784
1153041203.4009156,-37.35670962738541,-44.293222660274935,-32.07988772973705,0.9750015146049809,-7.098002909522138,11.189817653790517
1155003270.111184,-37.48786745416379,-43.01514753186601,-32.87753739985275,0.9043820511569018,-7.437333658193513,11.935018418584399
1156965336.821452,-37.54820866986911,-44.200689434298475,-32.772565314863286,1.2790713893333336,-8.561165855318908,12.5533834190852
1158927403.5317202,-37.253575364250835,-43.04185086149337,-32.404008242806285,0.8713086298841002,-8.676755924478714,11.528185982925766
1160889470.2419882,-37.72968620206137,-44.3464896072792,-32.246392790339605,1.0314635934806682,-7.17926719535361,10.861291069746619
1162851536.9522564,-38.41132927959751,-45.42756662975388,-32.62830809292535,0.9902654262507153,-6.842019598246085,11.564976860670715
1164813603.6625245,-38.49798407437906,-45.09712729974416,-33.011197243251566,1.4678502048990867,-7.31911492825179,11.332241231783422
1166775670.3727927,-37.96968580212558,-44.50766345948416,-33.0535701952531,1.470217381993229,-7.748373192102281,10.83549406054414
1168737737.0830607,-37.690022060069964,-44.18273122035714,-32.500923149118044,1.185434698391117,-7.456822258028045,9.787905368828602
1170699803.793329,-37.5202864065972,-44.17677450608603,-32.71977358700718,1.1440690144164614,-7.9576208872306795,10.620961462739668
1172661870.5035973,-37.25622537331423,-43.35606933589733,-33.034865354424795,0.9218835003167972,-7.617833513726552,9.501775432440564
1174623937.2138653,-36.893324620414404,-43.444053539602294,-32.64256445886518,0.8693701663393817,-7.3725592698662465,9.776844012752449
1176586003.9241333,-36.77706125831837,-42.42486994589352,-32.41941643708256,0.8670897122844752,-8.638100206361736,9.903096724078559
1178548070.6344016,-36.650441360175535,-42.92884598509353,-32.713174926473506,0.9994846418593624,-7.609469196476018,9.533688758812092
1180510137.3446698,-36.20320417931488,-43.011067689759635,-32.310185286961456,0.8923013853423447,-7.173147602902654,9.12100448685715
1182472204.0549378,-36.252503800769745,-43.00273107342181,-32.225199080385664,1.1644406115504717,-7.583855800034669,9.730361616897842
1184434270.765206,-36.55400157028985,-42.510517282110605,-31.960009433441357,1.2122469587593094,-7.529536503613131,9.709178291820416
1186396337.475474,-36.998673085227935,-42.38855910399154,-32.181325666429885,1.341763533086057,-7.858520727944546,10.655461640138208
1188358404.1857424,-36.984633577689735,-42.748251241366546,-32.24349162998383,0.9157783484078367,-7.629225408800121,10.965411114542698
1190320470.8960104,-37.17680330590493,-43.04413319345828,-33.13058603429874,1.120330311207341,-9.912986090185093,9.209401896731379
1192282537.6062787,-37.62817238239573,-43.678766100450034,-32.908499576021576,1.0589480062818089,-8.061289596284515,10.079505821265212
1194244604.3165467,-37.93418087165061,-44.00308093362737,-32.69131675922462,0.749410901068158,-8.300800904710243,11.64424714966433
1196206671.026815,-37.943396939326455,-45.32890038436985,-32.75301923806171,0.9570762849206216,-9.602745937506588,11.259018154933123
1198168737.737083,-38.46512797067205,-46.298491219311025,-33.508462530510464,1.2324745291032473,-8.398810162330523,13.746975291240222
1200130804.4473512,-38.62249274479949,-46.346028348912014,-33.48967286184978,1.444299665101322,-9.616370151449713,13.303117800989565
1202092871.1576195,-39.49218696010114,-47.03401449179374,-33.891434487223016,1.6526814234905642,-8.822002887469273,13.34683383746523
1204054937.8678875,-39.6888985552427,-47.472099235628605,-34.146374767380095,1.7825602604140807,-9.510878724534036,13.991856178111187
1206017004.5781558,-39.02539702822352,-45.208419223291685,-33.08133137515631,1.4728467789270112,-10.79985935213883,11.793262673117168
1207979071.2884238,-38.45854621199734,-44.83249289845715,-33.9452126365792,1.0591754958053974,-9.563764626749377,12.137952459477232
1209941137.998692,-38.921861176366136,-45.872185895356395,-33.33173510408423,1.5195322405252731,-10.821203325722879,13.513616917408537
1211903204.70896,-38.43958380291072,-46.35814898931001,-33.054493061689584,0.9891358715784531,-11.311512480252384,11.40292491739559
1213865271.4192283,-38.381118984255224,-45.4341330091752,-33.71141741393861,1.0219747595901643,-9.729119188697394,14.366458701994349
1215827338.1294963,-38.60940261357857,-46.35287002939009,-33.60860754910466,0.912985965685163,-11.829271663395806,11.51929186834533
1217789404.8397646,-38.856455625229,-46.742456955088784,-33.13878571277061,1.1243420436453149,-11.295633739728464,12.495585675625374
1219751471.5500326,-38.812284124092415,-46.35979246638759,-33.78152915400776,1.2694283011727951,-10.58026129153366,12.490321367155937
1221713538.2603009,-39.29481602668512,-48.06739863478536,-33.358117389089884,1.3082079584153843,-10.195155538590635,12.35884763358675
1223675604.9705691,-38.521313123355654,-46.40603691753665,-34.27891634915796,1.482068337309537,-9.71602309113262,11.368350002293866
1225637671.6808372,-39.24097937580137,-47.24707302443247,-33.97849876658292,1.5916121752368457,-13.008504937035532,9.61933652456606
1227599738.3911052,-38.47106943665289,-45.305032027534025,-33.417862085828936,1.094283591327402,-9.824410648470334,11.090128929947044
1229561805.1013734,-38.72192895716125,-45.72721165029347,-33.74425293002474,0.5557193155308845,-7.823992925345521,12.900104837815935
1231523871.8116417,-38.611583462964774,-45.65635744168678,-33.73643002807749,0.4949431718046022,-9.002753105624652,12.616475174211566
1233485938.5219097,-38.317919288692934,-46.3165929148216,-33.06745390861427,0.7873503794947307,-10.78637153852161,9.821991919795652
1235448005.232178,-37.63362264709487,-44.72744009216592,-32.5049575977765,1.3897521746700066,-8.056093085024372,10.570484248101225
1237410071.942446,-38.02160566549533,-45.154281167308454,-32.53952947389259,0.9226835055480718,-8.102853462243331,9.49504323137472
1239372138.6527143,-37.496262669946326,-43.62752094399561,-32.916579344322166,0.9921641454701375,-8.134867585738416,9.673335809988338
1241334205.3629823,-37.608992134190004,-44.2562707992673,-32.332084274529414,1.0208299225142285,-8.512118767376975,9.1752644913741
1243296272.0732505,-37.24414955996477,-44.00768642047832,-33.06850539224576,1.3357706657118982,-6.161715290789049,11.207460716485876
1245258338.7835186,-37.14787105493953,-42.52315508741857,-32.07314084452362,1.2339344044954639,-6.469735636647811,9.497187551059334
1247220405.4937868,-37.094695346615964,-42.52003944876787,-32.64492294408115,1.0039452701929825,-8.326039555921223,9.510641049320878
1249182472.2040548,-37.19313745018346,-43.65578681714831,-32.92957631487192,1.2274272298358404,-7.44459491647812,10.741501371083517
1251144538.914323,-37.771551490158735,-44.2753590317829,-32.87849998466744,1.4797213795402038,-7.487384351713219,9.58839697693031
1253106605.6245914,-37.20362274197696,-43.277434060326314,-32.56990433990482,1.2707581987489398,-8.999105011192498,8.845051460184559
1255068672.3348594,-37.52630999092738,-44.8010527509895,-32.772817423490125,1.3267184472550393,-7.49767183806583,9.624745386339336
1257030739.0451276,-37.64425360957594,-44.1539443512559,-33.242500779962526,1.3791511233346028,-8.018160250467414,8.184281663730609
1258992805.7553957,-37.877458021564514,-44.36956731186762,-32.88562395369163,1.241065482847997,-7.690403812725458,9.420132279203177
1260954872.465664,-37.894393140480105,-45.68896819595211,-32.905347092456594,1.3170173496687267,-7.991935739812166,9.661665925632654
1262916939.175932,-38.123512224308655,-44.17576284256563,-33.190078890352616,1.3136801313309365,-7.744488787473367,10.162671918265513
1264879005.8862002,-38.144481146684036,-43.562346329906546,-33.463864164184,0.9278825149289235,-7.5973282229832835,10.543848492278865
1266841072.5964682,-37.95178900894726,-44.21591395178251,-33.006727478465635,1.1089305283535058,-7.911617172552806,10.683766186780343
1268803139.3067365,-38.057899570937856,-44.824947979310956,-33.596505315565146,0.8829457756884704,-8.335255429413236,9.982567517462101
1270765206.0170045,-37.896141608625456,-44.00249107285573,-32.46788579963965,0.6959773502402988,-7.47178725881403,11.295629855040191
1272727272.7272727,-37.43336438176776,-42.252650425681075,-33.134528848333325,0.8427868054146526,-8.715102161807872,10.142535994322984
1274689339.437541,-37.647691970702084,-44.09497650290304,-32.76798271584031,0.9253814480512328,-8.691446630545139,10.342706443726241
1276651406.147809,-38.27724965230939,-45.86862744664313,-33.55154693248223,0.7005423770170032,-7.993342894621742,10.122409785238116
1278613472.858077,-37.89806181736829,-44.36095397151469,-33.28278494473138,0.7779456458416294,-7.883320172056507,11.191737262886821
1280575539.5683453,-37.790610735277205,-44.119185912202795,-33.449189849982105,0.894455710797613,-8.61071324357687,9.603921440957668
1282537606.2786136,-37.53701639979292,-44.25933943626621,-32.91907944778191,1.2408818445742709,-8.289339039597968,10.177916093707555
1284499672.9888816,-37.22651614651074,-43.6047147589479,-32.964931546504566,1.1885578392663962,-8.170682241230208,10.22642830335325
1286461739.6991498,-37.427310051279264,-44.527214846979064,-33.12411235286514,1.2312224111998193,-8.755374836309407,9.814954363082526
1288423806.4094179,-37.845477218050924,-44.70996545305664,-33.727828662398096,1.5551052887127599,-9.727192099002343,9.893485833612912
1290385873.1196861,-37.67053741030773,-44.99657702988938,-33.287191337936044,1.7942869582393217,-7.286987910114487,10.404647769059991
