freq_hz,s11_re,s11_im,s11_mag,s11_db,s21_re,s21_im,s21_mag,s21_db,s21_phase_rad,s21_phase_unwrap_rad,s21_phase_deg,s12_mag,s22_mag,group_delay_s21_s,passivity_sigma_max,passivity_margin,passivity_q_min_eig,reciprocity_abs_s21_minus_s12
1000000000.0,-0.951637693,-0.2727297149999998,0.9899473704103382,-0.0877578726538982,0.00407165994,-0.009153947909999998,0.010018641475070067,-39.98382329368823,-1.1522765966090776,-1.1522765966090776,-66.02058581739861,0.010024875682621894,0.9900000002822797,2.1955427423181623e-09,0.99147369456579,0.008526305434209958,0.016979912984062234,1.3136922823256183e-05
1001962066.7102681,-0.9547013030106322,-0.23272567506390707,0.982657528238679,-0.1519562865139438,0.003721434966666748,-0.009443863642748967,0.010150647206654644,-39.87012532384733,-1.195422382141698,-1.195422382141698,-68.49265723219438,0.010156895138600647,0.9849083101940554,1.9653174730853515e-09,0.9856304118245297,0.014369588175470294,0.028532691286608375,6.810699589428114e-06
1003924133.4205363,-0.9575897960210054,-0.25124048592019355,0.9899999996004878,-0.08729611155417236,0.0034693316020169055,-0.009378898559253928,0.00999999999747643,-40.000000002191946,-1.2164971449063693,-1.2164971449063693,-69.70015219284949,0.010001363446521194,0.9861962848778197,1.755340106470943e-09,0.9903010044589694,0.009698995541030597,0.019303920567556164,6.944765970196292e-06
1005886200.1308044,-0.9601032588193233,-0.24145751696063306,0.9900000000466056,-0.0872961076401016,0.003614299571582891,-0.009323992633262758,0.010000000000914121,-39.999999999206004,-1.2009952565878437,-1.2009952565878437,-68.81195941771482,0.010017246700577435,0.9897273859182264,1.5656106424749365e-09,0.9911735569405974,0.008826443059402611,0.017574980021724602,1.737599173824023e-05
1007848266.8410726,-0.9626887076880518,-0.2253924883128919,0.9887220649393683,-0.09851547497398652,0.003291704240435769,-0.009442705290423521,0.010000000000414759,-39.99999999963975,-1.2353714226588712,-1.2353714226588712,-70.78156864942552,0.009998679110992758,0.9899999997740437,1.3961290810973323e-09,0.9906195432019594,0.00938045679804056,0.01867292062634086,3.284989223374455e-06
1009810333.5513407,-0.9545173314898896,-0.25364345328525206,0.9876428187908054,-0.10800179397073623,0.00319019258963959,-0.009477482461551936,0.010000000128400794,-39.99999988847249,-1.2461018360761313,-1.2461018360761313,-71.39637605066507,0.010006718915347438,0.9798446681555572,1.2468954223381302e-09,0.9877483290672773,0.012251670932722725,0.02435323842480154,6.719592287848929e-06
1011772400.2616088,-0.9531140329841578,-0.2510182022096916,0.9856147816017734,-0.12585583736033673,0.0029299417156956904,-0.011083437614716416,0.011464167994960844,-38.813149168979926,-1.312355092815375,-1.312355092815375,-75.19240804082042,0.01147707386043256,0.9900000003163947,1.1179096661973309e-09,0.990066725888038,0.009933274111961987,0.019767878289340613,1.3553263295770392e-05
1013734466.9718771,-0.9528230149977436,-0.2687532363255072,0.9899999999721334,-0.08729610829349288,0.0027814802180046176,-0.009605382226369317,0.00999999999589013,-40.00000000356978,-1.2889308201928342,-1.2889308201928342,-73.85029608138498,0.009976199735701066,0.9889472841739164,1.0091718126749223e-09,0.9900523212717581,0.009947678728241871,0.019796401144403522,2.521466322432679e-05
1015696533.6821452,-0.9536905579317938,-0.2615613580292259,0.9889085014814812,-0.09687779070515631,0.0026516510020175034,-0.009642030233944972,0.010000000003440467,-39.99999999701165,-1.3024211788926483,-1.3024211788926483,-74.62323669900192,0.00999722619039374,0.989999999751538,9.61141159815994e-10,0.9900511426226948,0.00994885737730522,0.019798734991496297,8.333525532707858e-06
1017658600.3924134,-0.9590376164544911,-0.24565595958231246,0.9900000001277871,-0.08729610692784544,0.002654593139633917,-0.009641220630100797,0.009999999998763633,-40.0000000010739,-1.3021160292210345,-1.3021160292210345,-74.60575291069866,0.0100229637486146,0.9899999995596461,7.701712876289802e-10,0.9902798039263434,0.009720196073656595,0.019345909935602486,2.6125632821495033e-05
1019620667.1026815,-0.9568258477755165,-0.2541344062235973,0.9899999996959377,-0.08729611071673091,0.003191467885874571,-0.01352425886239216,0.013895720385916003,-37.14237866968132,-1.3390549273081587,-1.3390549273081587,-76.72219587095474,0.013900991858851512,0.9885545649297073,5.838172352897917e-10,0.9902046249289821,0.009795375071017909,0.01949480076925418,1.2125299684064202e-05
1021582733.8129497,-0.9530462561600039,-0.26796050943091887,0.9900000005025643,-0.08729610363969041,0.002765427498463122,-0.01037218077305509,0.010734510852302013,-39.38435481213932,-1.3102378045944574,-1.3102378045944574,-75.07109636174907,0.010724680455859257,0.9899999999818742,7.473835456062729e-10,0.9902014703213445,0.009798529678655465,0.01950104817344736,1.2025444821514754e-05
1023544800.5232178,-0.9617614517476255,-0.23476564903389904,0.9900000000171756,-0.08729610789830952,0.0034945995388548407,-0.013257459175362543,0.0137103045087762,-37.259057986613,-1.313063889573654,-1.313063889573654,-75.23301910360235,0.013718947598499856,0.9897393815088421,8.845965602983782e-10,0.9902574944990191,0.00974250550098088,0.019390094588525086,2.6899657079350577e-05
1025506867.2334859,-0.9551612476103538,-0.2603209394698176,0.9900000002338465,-0.08729610599732007,0.0021121615480588617,-0.011420424866306551,0.011614100504647418,-38.70028840086547,-1.3879168036451046,-1.3879168036451046,-79.52177516415189,0.01161194968367646,0.9900000004590773,9.101106114370534e-10,0.991012288204577,0.008987711795423015,0.0178946446275288,1.7553344822110802e-05
1027468933.9437541,-0.946051270022982,-0.2916967519254633,0.9900000003009911,-0.08729610540821828,0.0021892336494937045,-0.009757420563619711,0.010000000001371216,-39.999999998808974,-1.3500853944661684,-1.3500853944661684,-77.35419508516635,0.010006552952045921,0.984209779558671,9.141157782767798e-10,0.9901578660150816,0.0098421339849184,0.01958740036845997,7.440509811096835e-06
1029431000.6540222,-0.9573506690399256,-0.25215014545816705,0.9899999996796807,-0.0872961108593637,0.0021220408849638907,-0.01049846934621706,0.010710785038031415,-39.403573935014705,-1.371354878900039,-1.371354878900039,-78.57284677564634,0.010718088150327718,0.9899999997713084,1.2145531406897115e-09,0.990666720441947,0.009333279558052965,0.018579449008796933,7.93878245717909e-06
1031393067.3642904,-0.964932382980642,-0.22137185108437843,0.9900000000895072,-0.08729610726369927,0.002150233494241457,-0.012262555759697126,0.012449649707499365,-38.09685736050591,-1.397211528437651,-1.397211528437651,-80.0543236665004,0.012470553877910294,0.9810860787887913,1.233873052866466e-09,0.9901154751846383,0.009884524815361728,0.019671345799897468,2.694612936684568e-05
1033355134.0745585,-0.9588249532677284,-0.24648470325854246,0.9899999999744007,-0.08729610827360046,0.0019008888022498986,-0.011717712905451809,0.011870896089727637,-38.51032993070555,-1.4099737870679574,-1.4099737870679574,-80.78554722307138,0.011874420989627751,0.9899999998420954,1.29715062636888e-09,0.9911129527147791,0.00888704728522094,0.01769511496099227,1.1872967855265365e-05
1035317200.7848266,-0.9582684272325919,-0.24863954108916755,0.990000000012049,-0.0872961079432881,0.002064710106929186,-0.0121059573331248,0.0122807667015172,-38.21549037750614,-1.4018685295890891,-1.4018685295890891,-80.32115017766537,0.012258065595215901,0.9791987643153797,1.1564815391242078e-09,0.9901701529697416,0.009829847030258354,0.019563068167878388,2.691619801828966e-05
1037279267.4950948,-0.9650554860943156,-0.21950123849423167,0.9897034328228015,-0.08989846731956669,0.0015898865887696545,-0.00994194308650672,0.01006826557558393,-39.940906747476575,-1.412221907958861,-1.412221907958861,-80.91435506195533,0.010066879812844988,0.985989069868066,1.1790497729446093e-09,0.9898736563061827,0.010126343693817264,0.020150144551029474,1.4359667285099584e-06
1039241334.205363,-0.9531841860167294,-0.25391141039255094,0.986423386178526,-0.1187328002681823,0.0007996681540027001,-0.009967975259839335,0.009999999996864756,-40.00000000272323,-1.4907440379945152,-1.4907440379945152,-85.41334171137576,0.010012647299739125,0.9878874493485945,1.6342642712128423e-09,0.9891455959198489,0.010854404080151148,0.021590990072366992,1.2890949792005213e-05
1041203400.9156312,-0.9643922894084206,-0.22371301043208386,0.98999999944798,-0.08729611289221861,0.0008519103249204232,-0.009963646834489876,0.010000000472207296,-39.99999958984596,-1.4855019145202675,-1.4855019145202675,-85.11299016061491,0.010012675098071131,0.9899999983647364,1.5160097448347802e-09,0.9914655253861514,0.008534474613848597,0.016996111970762943,1.2686394899668704e-05
1043165467.6258993,-0.9596632755624775,-0.2271439499036779,0.9861784708870642,-0.12088965436990856,0.0016096989433030335,-0.014227635683590041,0.014318405911030585,-36.88210659947284,-1.4581365017111492,-1.4581365017111492,-83.5450675020192,0.014316161372016363,0.9777974644137295,1.484054907537627e-09,0.9866160515630178,0.013383948436982207,0.02658876679820129,6.788009372666959e-06
1045127534.3361675,-0.9633216363311666,-0.22506471690620933,0.9892637170238422,-0.09375838279620699,0.0010537323868280344,-0.015342874152452605,0.015379016197437617,-36.261428913175294,-1.5022250602897862,-1.5022250602897862,-86.07115583339039,0.01538079540099325,0.9844083024521577,1.4337549227090373e-09,0.9903728545645277,0.009627145435472273,0.019161608941709055,2.210536854181386e-05
1047089601.0464356,-0.9633689400456913,-0.2124345753770004,0.9865131339522882,-0.1179425677890887,0.0005627834591231958,-0.012219883427911265,0.012232835984088196,-38.2494569435589,-1.5247741144764555,-1.5247741144764555,-87.36312147029834,0.012239234724453414,0.9858432867645557,1.1888851311191655e-09,0.9884035077060165,0.011596492293983518,0.023058505954442636,6.4025041693597835e-06
1049051667.7567037,-0.9586804004523863,-0.24555993815332325,0.9896301296127821,-0.09054181880384321,0.000281461515544248,-0.011662288640719607,0.011665684588749605,-38.66179539991225,-1.5466666815714838,-1.5466666815714838,-88.61747316755044,0.011652559606240663,0.989999999871982,9.272074004527189e-10,0.9925143114676275,0.007485688532372525,0.014915341531941554,1.4117484406068872e-05
1051013734.4669719,-0.9632940818313332,-0.19100836399228688,0.9820487173283622,-0.157339345236997,-0.00012729602135903086,-0.011949702910059591,0.011950380910905748,-38.45236503261313,-1.5814485754326921,-1.5814485754326921,-90.61032888926967,0.011944510461370168,0.9840627963281572,9.600152764718088e-10,0.9857649434549316,0.014235056545068403,0.02826747625529573,6.926996299670031e-06
1052975801.17724,-0.9591134841077257,-0.22588424015162173,0.9853539289748308,-0.12815494756994433,0.0003729750041794192,-0.013859225988894336,0.013864243771839374,-37.162076282521646,-1.543891144452531,-1.543891144452531,-88.45844660475254,0.013888205554535618,0.9783376509067173,1.2134312209619096e-09,0.986459613377968,0.013540386622032052,0.026897431174189933,2.4530030719984062e-05
1054937867.8875082,-0.9603086311170095,-0.22767266683955423,0.9869283207121272,-0.1142877682815267,0.00011601836615932958,-0.018980603582902104,0.01898095815896981,-34.43363736330598,-1.5646839331198927,-1.5646839331198927,-89.64978563969981,0.01899539117878962,0.9899999994446228,9.864195153401846e-10,0.9931227607593311,0.006877239240668853,0.013707182061764783,1.6038747642748615e-05
1056899934.5977763,-0.9605140776443792,-0.23981807081727474,0.990000000224016,-0.08729610608356894,-0.00014101071640433828,-0.009999005781185337,0.010000000031715934,-39.99999997245189,-1.5848978657424566,-1.5848978657424566,-90.80795866633454,0.00998232561859907,0.9873586414674679,9.60562316568667e-10,0.9915903632739973,0.0084096367260027,0.01674855146214202,1.886360475844432e-05
1058862001.3080444,-0.9547149410000064,-0.2552367129999774,0.9882440985058694,-0.1027154090444059,-0.0002292548253498483,-0.011632458998532517,0.011634717879153164,-38.68488286209163,-1.590501975482951,-1.590501975482951,-91.12905050239303,0.011627492251837958,0.9831363067730184,1.299995917573118e-09,0.9898423901013078,0.010157609898692188,0.020212042758530314,1.06669440027592e-05
1060824068.0183126,-0.9595052119697192,-0.23799919505563288,0.9885817460605799,-0.09974825902119137,-0.00052832636955943,-0.00998603381366022,0.010000000004016857,-39.99999999651101,-1.6236535731669757,-1.6236535731669757,-93.02849713380331,0.009982759874255329,0.9866468648143552,1.5087183391311462e-09,0.9907534731005878,0.009246526899412189,0.018407555539122884,1.7442608319856744e-05
1062786134.7285807,-0.9509840400849966,-0.2533193247074561,0.9841449714176381,-0.13881844500647134,-0.0008996266689853412,-0.011532799823196039,0.011567834711192077,-38.734958509791106,-1.6486446026713257,-1.6486446026713257,-94.4603776500895,0.011549264647203366,0.979337441161616,1.4567055009293534e-09,0.98627064229559,0.013729357704409972,0.02727022014584421,1.938188246003421e-05
1064748201.438849,-0.9575532270111338,-0.23179023398404644,0.985208046622547,-0.12944099493113798,-0.0008102332069032051,-0.010092085086361053,0.01012455723673484,-39.892479201964356,-1.6509085244873571,-1.6509085244873571,-94.59009081529568,0.010124638751187628,0.9898467044332255,1.59651086261671e-09,0.9914867719473597,0.00851322805264032,0.016953981053404125,1.216511186456398e-05
1066710268.1491171,-0.9625661541333742,-0.23144415838941124,0.9899999997655039,-0.08729611010638273,-0.0016976529776186373,-0.019081560347108895,0.0191569301014744,-34.35348170766497,-1.6595309442932196,-1.6595309442932196,-95.08411907936161,0.019197265315940973,0.9899999998652502,1.2230540034509645e-09,0.9963268651347309,0.003673134865269101,0.0073327778107999345,4.066625287576366e-05
1068672334.8593853,-0.9600867424574097,-0.20959150541091198,0.9826978946669688,-0.15159948759892763,-0.0016069179934390114,-0.011172317634801025,0.01128728783944682,-38.94820799562585,-1.7136469624113206,-1.7136469624113206,-98.1847385215823,0.011292210379320352,0.980680859129741,1.173146958069675e-09,0.9858258424036838,0.01417415759631624,0.028147408449066984,1.7121572881063064e-05
1070634401.5696534,-0.9649945066504751,-0.21776072687342904,0.9892593856183717,-0.09379641329465752,-0.0013680359492678049,-0.00990598191238966,0.010000000000354009,-39.99999999969251,-1.7080302743372564,-1.7080302743372564,-97.86292600009695,0.009985414325165101,0.9794034604176292,9.484039135754836e-10,0.9904330588566258,0.009566941143374197,0.019042355923907586,1.6446412781552664e-05
1072596468.2799215,-0.961117895278963,-0.23738658581540945,0.9899999998740205,-0.08729610915429833,-0.001289371035641174,-0.009916528126756691,0.01000000038781534,-39.99999966314788,-1.7000933831967837,-1.7000933831967837,-97.40817563529309,0.009996675859808317,0.9899999985393643,9.523637057846491e-10,0.993680894728462,0.006319105271538006,0.012598279451643794,7.1966887326454944e-06
1074558534.9901896,-0.9626670577535634,-0.22458754715442392,0.9885177946909925,-0.10031016754140837,-0.001676515256853522,-0.012173985917673038,0.01228888263961228,-38.2097520664551,-1.7076484611689253,-1.7076484611689253,-97.84104971698906,0.012302448532819704,0.9836491252392723,1.019376955001255e-09,0.991189669474154,0.00881033052584601,0.017543039127717625,1.365767779629604e-05
1076520601.7004578,-0.9630319939564284,-0.22949810239243446,0.9900000001946578,-0.08729610634114665,-0.00210356312292238,-0.010723173378766757,0.010927553482971886,-39.229541185116275,-1.7645063350466927,-1.7645063350466927,-101.09876592227226,0.01092335932837332,0.9883678605055087,1.1083674513700419e-09,0.993862444777364,0.0061375552226360375,0.012237440861160943,7.859597480385277e-06
1078482668.410726,-0.9627558980262956,-0.22177879666065325,0.987970016666835,-0.1051247073108601,-0.002357773901188807,-0.014888851541671064,0.015074382176362913,-36.43520956769625,-1.7278505034380072,-1.7278505034380072,-98.99854147655235,0.015067410640366775,0.9900000000605188,9.407475063850873e-10,0.994830604223568,0.005169395776432051,0.01031206890017063,6.976449059794938e-06
1080444735.120994,-0.9595758571873344,-0.24354501481073962,0.9899999999676621,-0.0872961083327225,-0.0020231622411420705,-0.009793202746860623,0.01000000027475507,-39.999999761350786,-1.7745188010930106,-1.7745188010930106,-101.67243796924433,0.009994977321121677,0.9900000000242335,1.1054745434072428e-09,0.9944043652331136,0.005595634766886404,0.011159958405328772,5.148320630994376e-06
1082406801.8312624,-0.9630680478963974,-0.22934675643530517,0.9899999997809964,-0.08729610997045736,-0.0023527274806522977,-0.012041931231056019,0.012269614271512321,-38.22338180558526,-1.763743654718388,-1.763743654718388,-101.05506755834276,0.01225740553089318,0.9900000000047828,1.14722258290884e-09,0.9951466801238634,0.004853319876136575,0.009683085038453058,1.2964126461170049e-05
1084368868.5415304,-0.9583744310639706,-0.23978253585997406,0.9879155908379162,-0.10560321349742563,-0.002701580164535114,-0.010800211568661539,0.011132973785707937,-39.06777627086462,-1.8159080785167818,-1.8159080785167818,-104.04386888272252,0.011131228439289827,0.9883261170655198,1.0353643633709738e-09,0.9933806399707131,0.006619360029286869,0.013194904131376277,8.103634710856939e-06
1086330935.2517986,-0.9687226199683486,-0.20414819711716722,0.99000000041643,-0.08729610439540073,-0.002254688951118927,-0.009742503672271889,0.01000000000352645,-39.999999996936964,-1.7982206242135719,-1.7982206242135719,-103.03045240081808,0.009998721487836067,0.9870696937245862,9.948322799592053e-10,0.993042568281219,0.006957431718781049,0.013866457581440578,1.2786317751756508e-06
1088293001.9620667,-0.9614972716372998,-0.2320893752165462,0.9891119660859321,-0.09509088188927416,-0.0024432670699998907,-0.009696929720000027,0.009999999998498281,-40.00000000130438,-1.8176216222954418,-1.8176216222954418,-104.14204770925063,0.010011653192672634,0.9900000001028771,1.1620000380413803e-09,0.9942185583808821,0.005781441619117866,0.01152945817104026,1.9232720802229595e-05
1090255068.672335,-0.9577392920174876,-0.25066999792631806,0.9899999996639086,-0.08729611099774179,-0.002406415492493066,-0.00970614055180436,0.009999999996694585,-40.00000000287105,-1.8138230963670312,-1.8138230963670312,-103.92440820518169,0.009994008269311067,0.9900000000211088,1.3714289533218314e-09,0.9948362024870083,0.005163797512991675,0.010300930221228112,7.498045542886286e-06
1092217135.382603,-0.9634395463785912,-0.22373273865720167,0.9890763862681372,-0.09540333178351651,-0.003114312603257977,-0.010173781692507175,0.010639773348977205,-39.46135246776854,-1.8678506207014327,-1.8678506207014327,-107.01995732708325,0.01063846712587687,0.9767881362233364,1.348978911394853e-09,0.9910893763114922,0.008910623688507813,0.01774184816249709,5.614353202076012e-06
1094179202.0928712,-0.9646141730494612,-0.2069194632917707,0.9865577363423037,-0.1175498688311679,-0.0026583027517541953,-0.009640198492236962,0.010000000024485584,-39.99999997873209,-1.8398614098680073,-1.8398614098680073,-105.41629367442613,0.01001397921486458,0.980387645233124,1.7282736588749937e-09,0.9890714899695126,0.010928510030487448,0.021737587729488035,1.7571264881528693e-05
1096141268.8031392,-0.9661248452310921,-0.2161082669668881,0.9899999998102189,-0.08729610971406997,-0.0034792972006958555,-0.010282547715341605,0.010855242812993493,-39.28720915370056,-1.8970722721741853,-1.8970722721741853,-108.69423462687422,0.010836151695203671,0.9774974683576678,1.7598778236380583e-09,0.9922066733105228,0.007793326689477187,0.015525917438065816,2.3923732666404137e-05
1098103335.5134075,-0.970054615555528,-0.19772213356892523,0.9899999996280966,-0.08729611131194305,-0.0033941896323189846,-0.009406353001614468,0.01000000000255616,-39.99999999777975,-1.9170954485901017,-1.9170954485901017,-109.84147812795212,0.009999605188400306,0.9850266695972723,1.8796141929757303e-09,0.993311591575733,0.0066884084242669894,0.013332082041284148,8.367434911974854e-07
