freq_hz,s11_re,s11_im,s11_mag,s11_db,s21_re,s21_im,s21_mag,s21_db,s21_phase_rad,s21_phase_unwrap_rad,s21_phase_deg,s12_mag,s22_mag,group_delay_s21_s,passivity_sigma_max,passivity_margin,passivity_q_min_eig,reciprocity_abs_s21_minus_s12
1000000000.0,-0.949563031,-0.2800536569999999,0.9900000003237275,-0.08729610520873789,0.0006886042259999994,-0.0142554897,0.014272111349301867,-36.91023549282496,-1.5225293496463599,-1.5225293496463599,-87.23450591953446,0.014259653614085889,0.9900000003404613,6.812548790774455e-10,0.9934498715403166,0.006550128459683391,0.013057352736528166,1.9847025726854764e-05
1001962066.7102681,-0.9547473433744559,-0.25026451936678307,0.987002947986716,-0.11363100349781319,0.0010005132822387584,-0.013051387212555497,0.013089680477383445,-37.66141909129637,-1.4942864319105253,-1.4942864319105253,-85.61630593213596,0.013088453099645904,0.9899999999685525,8.675949989955403e-10,0.9913891948117922,0.008610805188207782,0.01714746441042611,2.483818693761812e-05
1003924133.4205363,-0.961504034914025,-0.23581770835054705,0.9900000003675022,-0.08729610482467451,0.0002224382535435107,-0.009997525839437773,0.01000000008434327,-39.999999926740365,-1.5485506668908846,-1.5485506668908846,-88.72541757501672,0.010010690108226796,0.9899999996930314,1.0247252455908816e-09,0.9922270982157683,0.007772901784231734,0.015485385566316498,1.2218867909714136e-05
1005886200.1308044,-0.953708266019073,-0.2655946957804727,0.989999999545368,-0.08729611203777285,0.00043781857630447585,-0.015722920142584182,0.015729014683566057,-36.06596964275737,-1.5429576387874413,-1.5429576387874413,-88.40496066999135,0.015743798154161544,0.9856272804920901,1.1526456188634696e-09,0.9923646904877114,0.007635309512288635,0.015212321073228577,2.5180622821353003e-05
1007848266.8410726,-0.9487291834147923,-0.27383713022211587,0.9874582711948808,-0.10962496157867624,0.0001410677449288934,-0.013882604803344212,0.01388332151304201,-37.150132374720044,-1.5606352012796185,-1.5606352012796185,-89.41781039287187,0.01388827405435524,0.9798928532052057,1.2513561188133044e-09,0.9890863105548399,0.010913689445160135,0.021708270273015,5.0604441221618464e-06
1009810333.5513407,-0.9479580508846573,-0.261213022608822,0.9832887212906876,-0.14637884676476165,-5.696176403493883e-05,-0.013902886102450145,0.013903002791493042,-37.13782780076657,-1.5748934218074873,-1.5748934218074873,-90.23474625248555,0.013925191537005204,0.9900000000983821,1.320856745440386e-09,0.9917529263500043,0.008247073649995662,0.01642613307620274,2.5058072287735872e-05
1011772400.2616088,-0.9461500098519875,-0.29137631798627217,0.9899999999121986,-0.0872961088193387,9.16197785175096e-05,-0.014105319856476369,0.014105617407165209,-37.01215799781974,-1.5643010121906369,-1.5643010121906369,-89.62784588656623,0.01410644469402914,0.9870384183562407,1.361147498744714e-09,0.9929307999956312,0.007069200004368836,0.014088426420036167,9.294402873955363e-06
1013734466.9718771,-0.9600913443919592,-0.24150488343543586,0.9899999991411732,-0.08729611558402671,-0.0009441674088787386,-0.015876683282615964,0.015904732759543183,-35.969472475213834,-1.630195177274228,-1.630195177274228,-93.40330344039432,0.015897861164397717,0.9863416279206395,1.372228378726289e-09,0.9934737036614127,0.006526296338587256,0.013010000133275343,9.986599845985522e-06
1015696533.6821452,-0.9565734046526425,-0.2383990232979998,0.9858330349497264,-0.12393265736512007,-0.0015219320382355702,-0.021545650606842815,0.021599336499095387,-33.31119179106233,-1.6413167444653673,-1.6413167444653673,-94.04052230201776,0.02160320166037022,0.9899999996247912,1.1589497205724669e-09,0.9951179881615231,0.0048820118384769184,0.00974018963736293,3.78901008443026e-05
1017658600.3924134,-0.9573013389219995,-0.2523373632616589,0.9899999991917674,-0.08729611514013218,-0.0007643120077556142,-0.009970750023617464,0.01000000144393325,-39.9999987458156,-1.6473021278588649,-1.6473021278588649,-94.38345950923286,0.010006517232853047,0.9900000004330057,1.3218291998648262e-09,0.9932966077925284,0.006703392207471626,0.013361848947855769,7.260681400453771e-06
1019620667.1026815,-0.9672020252276662,-0.2094491307213648,0.9896204807725204,-0.09062650617108117,-0.0008234691799714211,-0.010592678525395643,0.010624638338914923,-39.4737168868929,-1.6483797547518366,-1.6483797547518366,-94.44520298208994,0.010627331245251961,0.9864489784211302,1.2254898902628265e-09,0.9915078077114423,0.008492192288557687,0.016912267247249264,3.2671125499480053e-06
1021582733.8129497,-0.9593888844661276,-0.2442805130844023,0.9900000003585553,-0.08729610490317173,-0.0021959173600019193,-0.019035889457441273,0.01916212776514867,-34.35112536928711,-1.685645381988311,-1.685645381988311,-96.5803661436477,0.019193433582946836,0.9898839557598611,8.791207250968535e-10,0.9969808379693258,0.003019162030674205,0.006029208721980666,3.132698447432848e-05
1023544800.5232178,-0.9616023509326523,-0.23541648027517878,0.9900000002547261,-0.08729610581413001,-0.0008661112612960724,-0.009962422242279332,0.010000000282520287,-39.999999754606,-1.6575161030197327,-1.6575161030197327,-94.96867717800205,0.010004033174565293,0.9840464588762771,9.904267739340809e-10,0.9914177400669484,0.008582259933051617,0.01709086468054482,1.8949379998182227e-05
1025506867.2334859,-0.960485483659971,-0.23993256395598905,0.98999999978183,-0.08729610996314406,-0.0015301321202041223,-0.011925459358579171,0.012023222746768186,-38.399582138276976,-1.69840711514286,-1.69840711514286,-97.31155959267552,0.012031530809878187,0.990000000107703,9.544585994581748e-10,0.9944210501244763,0.005578949875523653,0.011126775069333909,1.3682438832287325e-05
1027468933.9437541,-0.9485905840389948,-0.26257666893227355,0.9842614506293589,-0.137790480895011,-0.0014409800612621992,-0.009895634219111046,0.010000000006769835,-39.9999999941198,-1.7153977316863447,-1.7153977316863447,-98.28505021194235,0.009987867669284799,0.9890186275496041,1.3617716219422409e-09,0.9913818462666216,0.008618153733378375,0.017162034892984044,1.277390005057778e-05
1029431000.6540222,-0.9580816559999993,-0.24935825700000006,0.9899999999483733,-0.08729610850195516,-0.0017207924598623215,-0.010155947776244723,0.010300699098785924,-39.742665982708644,-1.7386391641252847,-1.7386391641252847,-99.61668620053206,0.010292480944624522,0.9883235145623247,1.4619702294764795e-09,0.993548844915121,0.0064511550848790344,0.012860692767828967,8.761495715289619e-06
1031393067.3642904,-0.9558727770180254,-0.24965996095983176,0.9879386934170644,-0.10540009482167724,-0.0019811153485812527,-0.012621288590285808,0.01277582653700585,-37.87221986871989,-1.72649209572484,-1.72649209572484,-98.92071044772985,0.012794461027760955,0.9900000004128501,1.470163521455059e-09,0.9942019180079945,0.005798081992005488,0.011562546229225314,1.994283936509771e-05
1033355134.0745585,-0.9618015658375184,-0.23460125113987945,0.9899999995373228,-0.08729611210835869,-0.0016116810390088391,-0.009869269693135575,0.010000000002367249,-39.99999999794384,-1.7326704424621333,-1.7326704424621333,-99.27470364014518,0.009989578397173437,0.9837502797715774,1.3891542585114768e-09,0.9919128245378177,0.008087175462182294,0.016108948517408756,1.0524910066876359e-05
1035317200.7848266,-0.959221165708638,-0.2250514413018282,0.9852681847981638,-0.12891081491853507,-0.002509945136623587,-0.009679885093468232,0.010000000000580446,-39.99999999949583,-1.8245038476318207,-1.8245038476318207,-104.53637017468314,0.009996413654592595,0.9807751998445681,1.3500399545927963e-09,0.988216131023708,0.011783868976292022,0.023428878384533863,2.6890697015975497e-05
1037279267.4950948,-0.9605247083758193,-0.2191183809409455,0.9852007817022042,-0.1295050448840418,-0.002081877275857594,-0.009780888864496172,0.009999999998567873,-40.00000000124393,-1.780518049126437,-1.780518049126437,-102.01616956181181,0.009996274054988149,0.9787661058952651,1.2374542148835058e-09,0.9873302421591077,0.012669757840892304,0.025178992918038157,9.432390793113409e-06
1039241334.205363,-0.9646469343814532,-0.21353338329811275,0.9879980839021271,-0.10487795342031059,-0.0025431019778883964,-0.009671227033185075,0.009999999999867483,-40.0000000001151,-1.8279307110368908,-1.8279307110368908,-104.73271498476149,0.0099773694043237,0.9899999996393394,1.1783573043641352e-09,0.9937329112947237,0.006267088705276258,0.012494901009712515,2.321426171996015e-05
1041203400.9156312,-0.9423774830245554,-0.29645268107272693,0.987906631533013,-0.1056819852945471,-0.0024036874081505835,-0.009706817547216936,0.010000001002552964,-39.999999129193604,-1.8135420133682723,-1.8135420133682723,-103.90830333565992,0.010005023889531067,0.9865012870082025,1.2837123525473127e-09,0.9924809806120488,0.007519019387951187,0.014981503123345962,1.6710810261308868e-05
1043165467.6258993,-0.9541734659841743,-0.2503756382265629,0.9864760328591927,-0.11826923557372535,-0.004667142981524627,-0.017375548585045607,0.01799143997131066,-34.89868151733869,-1.8332066189255292,-1.8332066189255292,-105.03500223988024,0.017997550875077064,0.9899999998718595,1.198474133793786e-09,0.9974187875052475,0.002581212494752516,0.005155762331562097,8.558019781316662e-06
1045127534.3361675,-0.9586804347577854,-0.24663059243405822,0.9898963708953332,-0.08820535863451799,-0.0027193294320410006,-0.009623163428472964,0.010000001346553107,-39.999998830398916,-1.8461973880734859,-1.8461973880734859,-105.77931848468693,0.009989521793021646,0.9899999998440328,8.840399040853335e-10,0.9950299460591788,0.004970053940821173,0.009915406445467796,1.4019642769416256e-05
1047089601.0464356,-0.9581862140909241,-0.24438542016335946,0.9888604828095418,-0.09729956381255926,-0.00558913383182717,-0.018141923817141664,0.01898335630959518,-34.43254001322938,-1.8696478687476437,-1.8696478687476437,-107.12293205486927,0.01899172483740999,0.9890661003389274,8.91778737556999e-10,0.9990000208573016,0.0009999791426984483,0.0019989583271110096,5.8216318787075404e-05
1049051667.7567037,-0.9571759683766939,-0.2511234657823318,0.9895700225372593,-0.09106938891750821,-0.003155028901928817,-0.009489246967204478,0.010000000768830246,-39.99999933220256,-1.8917828666264898,-1.8917828666264898,-108.39117401285819,0.010020639884684676,0.9881875372207634,1.4628356014475956e-09,0.9944304563301605,0.005569543669839527,0.01110806752298845,2.6998848274353593e-05
1051013734.4669719,-0.9531917711881747,-0.2674424182781907,0.9899999998764324,-0.08729610913313768,-0.003609902875910291,-0.011215905904866196,0.011782527065121376,-38.575231079371,-1.8821816608637811,-1.8821816608637811,-107.84106544441829,0.01177658923102142,0.9899999997505476,1.2906833399671941e-09,0.9965670634665231,0.0034329365334768713,0.006854088013710305,2.3510484988141637e-05
1052975801.17724,-0.9538174366130642,-0.265202370383245,0.9899999998202064,-0.08729610962644378,-0.0037557611715488674,-0.009941346481726041,0.010627140341947163,-39.47167168186429,-1.9320125283452514,-1.9320125283452514,-110.69616384058223,0.010633220833719433,0.9862185117988539,1.3223058323923581e-09,0.9946918143028508,0.0053081856971491925,0.010588194558903162,7.0255698783879685e-06
1054937867.8875082,-0.9621444339022892,-0.22585074951763226,0.9882967533827242,-0.1022526263511589,-0.0033889047857263983,-0.009925365907127446,0.01048797235108327,-39.586169324505505,-1.8998239555628527,-1.8998239555628527,-108.85189447160111,0.010485699805128944,0.9899999994330643,1.3511409128913754e-09,0.9948574253811686,0.005142574618831386,0.010258703163952132,2.4973577641592893e-06
1056899934.5977763,-0.9590856666631198,-0.240025512189115,0.9886645348652332,-0.09902088941848379,-0.003508363798081074,-0.009364367758012127,0.010000000002349145,-39.999999997959556,-1.929260432478506,-1.929260432478506,-110.53848036260233,0.010011404706226404,0.9854477681148613,1.3308091131971828e-09,0.9929819892675383,0.007018010732461666,0.013986768990282526,1.4860284193728675e-05
1058862001.3080444,-0.9599345600000063,-0.24212732399997514,0.9900000002574719,-0.08729610579003935,-0.0048697562533746,-0.011086507568412762,0.012108888307014584,-38.33791453481197,-1.9846752665510983,-1.9846752665510983,-113.71351647737961,0.012085639942229713,0.9861542036791868,1.319275541913504e-09,0.9957824746039116,0.00421752539608844,0.008417263271710065,2.367752806716599e-05
1060824068.0183126,-0.9648604950988857,-0.22168496595990256,0.989999999563187,-0.08729611188143589,-0.005219437636892754,-0.011200892498553109,0.01235728619113258,-38.16153790148631,-2.0068628254874286,-2.0068628254874286,-114.9847699621291,0.012347932938695249,0.9866703662825761,1.277742520538804e-09,0.9961717467758221,0.003828253224177902,0.00764185092560732,2.030728997529965e-05
1062786134.7285807,-0.9620410201900652,-0.2174120964099391,0.9863016496963322,-0.1198048094244255,-0.004384477525797547,-0.010771365222899546,0.01162952930858827,-38.68875724940273,-1.9573649441733598,-1.9573649441733598,-112.14875026799352,0.011615943541753996,0.9809948003839831,1.2246409348977286e-09,0.990829587366179,0.009170412633821012,0.01825672879976771,1.8229962498455318e-05
1064748201.438849,-0.9650064116060072,-0.19545122480535018,0.9846007087741782,-0.1347971186428033,-0.005728801968924311,-0.01227933279720882,0.013549951510753066,-37.36124517866982,-2.0073196037794916,-2.0073196037794916,-115.01094143043753,0.013539202498014694,0.9774886921529867,1.1340389746604029e-09,0.9899125933026548,0.010087406697345203,0.020073057620812636,1.3434291360432673e-05
1066710268.1491171,-0.9484746743388112,-0.2837178013805896,0.98999999933452,-0.08729611388767436,-0.004533539277935313,-0.008913305876136413,0.010000000001307508,-39.99999999886431,-2.0413209132993115,-2.0413209132993115,-116.9590729638412,0.010013959537733763,0.9900000003031815,1.1771132863488788e-09,0.996936408408923,0.003063591591077053,0.006117797588717444,1.7306009070177836e-05
1068672334.8593853,-0.9569800260461374,-0.23969131786955736,0.9865407736699537,-0.11769921352861146,-0.004316919891538167,-0.009020210789692198,0.010000000002021872,-39.99999999824382,-2.017164039157513,-2.017164039157513,-115.57498602928742,0.010013432679882615,0.9884444210012105,8.006095115533841e-10,0.9940083442628337,0.005991655737166313,0.011947411535860302,1.3465177848389674e-05
1070634401.5696534,-0.9649055826227575,-0.1930773537064238,0.9840333571027147,-0.13980358909473237,-0.004598951415718466,-0.008879732308959234,0.01000000000014567,-39.999999999873474,-2.0486734343194595,-2.0486734343194595,-117.3803413870769,0.009999294796089055,0.988382503893989,1.0464223143739327e-09,0.9929026921183546,0.0070973078816454205,0.014144243984123636,1.8417994834145198e-05
1072596468.2799215,-0.9608326151483964,-0.2385386473182738,0.9900000003016861,-0.08729610540212061,-0.004668320514738773,-0.008843460375897795,0.010000000392420254,-39.99999965914811,-2.0565014328358706,-2.0565014328358706,-117.82885266410192,0.01000694628413456,0.98999999994198,1.4046035802319341e-09,0.9967121867142669,0.003287813285733132,0.006564816855264187,1.6044095033378046e-05
1074558534.9901896,-0.9763878348709825,-0.16360560870774304,0.9899999996387254,-0.08729611121868966,-0.006004727450207497,-0.010727295828546972,0.012293560409598054,-38.20644640686238,-2.0811030856127823,-2.0811030856127823,-119.23842353726526,0.012282672757879594,0.9899999998061809,1.4861913360139014e-09,0.9977080010840557,0.0022919989159443377,0.00457874457285848,1.721874761999398e-05
1076520601.7004578,-0.9664979984640408,-0.1965183027989112,0.9862747205368094,-0.12004196496497091,-0.005002175002662338,-0.008658998264942687,0.010000000285477017,-39.999999752037816,-2.0946462517896394,-2.0946462517896394,-120.0143898004435,0.009991782864964008,0.9900000002630238,1.192709617702239e-09,0.9950986963364011,0.004901303663598866,0.009778584549594724,8.633251120343441e-06
1078482668.410726,-0.9621430261994918,-0.22851992618344158,0.9889087720953847,-0.09687541381975665,-0.005082767182769329,-0.0086961106495336,0.010072579742209467,-39.93718571440458,-2.099731414788848,-2.099731414788848,-120.30574817843423,0.010085312785927114,0.9899999996475215,1.3200358940335792e-09,0.9964483817173095,0.0035516182826904608,0.007090622572955848,1.3714081210028422e-05
1080444735.120994,-0.9669854817515043,-0.20457445431205057,0.9883884000104727,-0.10144720471531732,-0.01113962638953442,-0.018596184243909873,0.02167739247538443,-33.279859185900115,-2.110500471753557,-2.110500471753557,-120.92276969184803,0.02169746740973241,0.9780339078013432,1.3049138995879232e-09,0.998999961912559,0.0010000380874409798,0.001999076098705355,2.0510144464234766e-05
1082406801.8312624,-0.9661622694262707,-0.21204968709583005,0.9891585316117741,-0.09468197621237325,-0.0066552341933836705,-0.009523251751643648,0.011618281546509665,-38.69716206896375,-2.1807436918200076,-2.1807436918200076,-124.9474097410643,0.011623175953838542,0.9884058803176664,1.1116300945244714e-09,0.997356352252969,0.002643647747030964,0.005280306620651723,8.314395481294623e-06
1084368868.5415304,-0.9613815266313137,-0.23631665364870622,0.9900000002725645,-0.08729610565762258,-0.006113700155810036,-0.009152269698881457,0.011006424043994278,-39.16707518317907,-2.1597202302717835,-2.1597202302717835,-123.74285412359549,0.011001431856565139,0.9899999996443759,1.2892350869635753e-09,0.9981443344529106,0.0018556655470893801,0.003707887599555691,5.390039471626055e-06
1086330935.2517986,-0.958683802854727,-0.2393145802009342,0.9881022731239668,-0.10396203224252545,-0.008791942476653611,-0.013178153148663102,0.015841779348368834,-36.0039208011703,-2.1591406967588385,-2.1591406967588385,-123.70964929921735,0.015825458387903217,0.9815754133622371,1.4376254296256013e-09,0.9970548393750215,0.0029451606249785156,0.005881647278850573,1.7691469291856932e-05
1088293001.9620667,-0.9664443813272584,-0.203850012858195,0.9877092537489529,-0.10741754701768103,-0.009370918997019034,-0.013784322319702013,0.01666798322119768,-35.562338907929615,-2.167852915694266,-2.167852915694266,-124.20882267441131,0.01665470622920191,0.9860761354140236,1.4741023636268742e-09,0.9990000005604418,0.0009999994395581968,0.0019989988802373545,2.0195223962934707e-05
1090255068.672335,-0.956900732034657,-0.23345141293599658,0.9849662802199249,-0.1315727416230905,-0.011625044595001037,-0.015618862936110388,0.019470247590946694,-34.2125705158775,-2.210636349894663,-2.210636349894663,-126.66013288716972,0.019481643904684806,0.9828622426438675,1.5018688930438777e-09,0.9990000066997762,0.0009999933002238226,0.0019989866138472503,1.2788625822288824e-05
1092217135.382603,-0.9666725839888118,-0.21364483653104827,0.9900000004100934,-0.08729610445099567,-0.0060511931553142604,-0.00796134813009864,0.010000000132577362,-39.99999988484477,-2.220712044112803,-2.220712044112803,-127.2374276415335,0.01000175725035947,0.985117387676914,1.290891841824793e-09,0.9956126853827294,0.004387314617270599,0.008755380704990417,6.877065245135925e-06
1094179202.0928712,-0.9604809620419452,-0.20808465489423925,0.9827628920789975,-0.15102500618301332,-0.012162927621892528,-0.015062239354506991,0.01935995513186576,-34.26191307072367,-2.250100543448302,-2.250100543448302,-128.92126461968064,0.01936564933280583,0.9847593072856814,1.2956506343659154e-09,0.9990000385923065,0.0009999614076935393,0.0019989228925703173,5.760287654012335e-06
1096141268.8031392,-0.9613871941265943,-0.23629359548493598,0.9900000001504063,-0.0872961067293927,-0.006542120267665894,-0.00756311195201901,0.009999999999768885,-40.00000000020074,-2.2839366134362398,-2.2839366134362398,-130.85992862529872,0.009988738281193269,0.9857816068675762,1.3480121270061254e-09,0.9963079085870913,0.0036920914129087157,0.007370551286816325,1.1397574421959625e-05
1098103335.5134075,-0.9643227891748992,-0.2240124048771864,0.9899999996267261,-0.08729611132396695,-0.006483052358450603,-0.007613805366191937,0.010000000001833254,-39.99999999840766,-2.276152738610591,-2.276152738610591,-130.41394544953093,0.010010045929197799,0.9884981417351972,1.1195141737561589e-09,0.9973306986183449,0.0026693013816551092,0.005331477593444291,2.671624481016161e-05
