freq_hz,s11_re,s11_im,s11_mag,s11_db,s21_re,s21_im,s21_mag,s21_db,s21_phase_rad,s21_phase_unwrap_rad,s21_phase_deg,s12_mag,s22_mag,group_delay_s21_s,passivity_sigma_max,passivity_margin,passivity_q_min_eig,reciprocity_abs_s21_minus_s12
1000000000.0,-0.9518125159999999,-0.2723103630000002,0.9899999997027484,-0.08729611065697572,0.0008882965129999992,-0.00996046833,0.010000000002397048,-39.99999999791795,-1.4818494372878777,-1.4818494372878777,-84.90371863043134,0.010003137986368897,0.9808609761749327,1.2738577556645176e-09,0.9904219667492219,0.009578033250778106,0.019064327780603782,9.674548231609162e-06
1001962066.7102681,-0.952706994591615,-0.2691642301024823,0.9900000001567927,-0.08729610667336136,0.0009832378540127961,-0.011650271167501008,0.011691688285011236,-38.64245543985374,-1.486599716485414,-1.486599716485414,-85.17588957995896,0.011691743343255628,0.9900000001258158,1.3092793555945315e-09,0.9922587275115033,0.007741272488496653,0.015422617677252039,2.171645693004158e-05
1003924133.4205363,-0.9538102996513778,-0.2652280364304614,0.9899999995100046,-0.08729611234803791,0.0009096222638019214,-0.015339460483107173,0.015366406885658426,-36.268553427049795,-1.511566192788469,-1.511566192788469,-86.6063633014374,0.01534093033740091,0.9899999996621751,1.3381277250044685e-09,0.9932659623596027,0.006734037640397261,0.013422728017852851,2.5476584799285858e-05
1005886200.1308044,-0.9563683302710803,-0.2506367718248007,0.9886653501242224,-0.09901372698225053,0.0005248078051837352,-0.012185384623037492,0.012196680763377401,-38.27516686565566,-1.5277542979858416,-1.5277542979858416,-87.53387340756065,0.012193648322426717,0.9900000001664062,1.3604028638943286e-09,0.9920825111601119,0.007917488839888076,0.015772291050246384,1.2622539544802884e-05
1007848266.8410726,-0.9594407979281739,-0.24407653399450419,0.9899999995837482,-0.08729611170103943,0.0005310462900676082,-0.009985889531751333,0.009999999995126772,-40.00000000423284,-1.517666705958404,-1.517666705958404,-86.95589695893865,0.00997880402491987,0.9898177025365392,1.3761047722641118e-09,0.9919203163887318,0.008079683611268207,0.01609408593527812,2.8056756828023504e-05
1009810333.5513407,-0.9580463245788835,-0.24436975561354718,0.988721061522274,-0.09852428996342964,-6.306020909804504e-05,-0.009999801170024452,0.010000000001499695,-39.999999998697376,-1.5771023894986025,-1.5771023894986025,-90.36131077826721,0.01000949547672137,0.9827492877182284,1.3852334501138187e-09,0.9897040845603947,0.010295915439605285,0.020485825004470673,1.9976987493127274e-05
1011772400.2616088,-0.9533007432185714,-0.2624671359061869,0.9887726252540963,-0.09807131568894138,-1.9205907106153456e-05,-0.009999981559941409,0.0100000000033018,-39.99999999713209,-1.572716918685617,-1.572716918685617,-90.11004180950533,0.009988389610573037,0.9870899379329392,1.3877888974434485e-09,0.9907528908345716,0.009247109165428369,0.01840870930293957,1.161491892080916e-05
1013734466.9718771,-0.9554102218571641,-0.2510425377868228,0.9878416106884768,-0.10625368149343528,-0.00032280611255228805,-0.009994789484865724,0.010000001031654125,-39.99999910391666,-1.6030825436185154,-1.6030825436185154,-91.84986396043763,0.01001438964709423,0.9847273383418559,1.3837711142530069e-09,0.9895954657844923,0.010404534215507688,0.020700814098773855,1.901969070826232e-05
1015696533.6821452,-0.956140325105982,-0.24491100817930947,0.9870084717068941,-0.11358239342050522,-0.0007206434266959154,-0.016056678532653204,0.01607284207753583,-35.87814644798488,-1.6156474545852133,-1.6156474545852133,-92.56978032878706,0.016037210832829225,0.9812081039082531,1.3313901121339456e-09,0.9897352051145706,0.010264794885429418,0.0204242237568186,3.7571722360419646e-05
1017658600.3924134,-0.967408549779832,-0.20772744122975517,0.9894594443568564,-0.09204003628625597,-0.0006725369676174387,-0.009977359825373748,0.01000000075288968,-39.999999346048355,-1.638100820699326,-1.638100820699326,-93.85626344298778,0.010010368218914377,0.9899999988685159,1.3351706282219907e-09,0.9925548025893142,0.007445197410685833,0.014834963856887314,2.241271484293552e-05
1019620667.1026815,-0.9618634247990252,-0.23190065423897924,0.9894236511235096,-0.09235424997112066,-0.0007213666229096781,-0.013014740537590839,0.013034716761995958,-37.697968027985425,-1.626166563821493,-1.626166563821493,-93.17248089226298,0.013029195211095438,0.9849874364701086,1.2141614414029768e-09,0.991646693429415,0.008353306570584973,0.016636835410508033,7.49924379408978e-06
1021582733.8129497,-0.9600373383946409,-0.24171948429641088,0.9900000001012066,-0.08729610716105293,-0.0007839823403866087,-0.00996922138384123,0.010000000165503764,-39.99999985624526,-1.6492750920941337,-1.6492750920941337,-94.49650203304402,0.010001133493512669,0.981646771135926,1.1680911502513467e-09,0.9911297520150644,0.00887024798493563,0.01766181467055692,5.091569104588206e-06
1023544800.5232178,-0.9559243551012746,-0.252500089773208,0.9887101031198507,-0.09862055978638067,-0.0013935331675372302,-0.012708199334051304,0.012784375815932834,-37.86640942207407,-1.6800161759944934,-1.6800161759944934,-96.2578363981922,0.01275343718869525,0.9820728768875966,1.3697298142467529e-09,0.9910818282752509,0.008918171724749069,0.017756809662585797,3.178192388405676e-05
1025506867.2334859,-0.957793969974347,-0.250460998028063,0.990000000228502,-0.08729610604421074,-0.0012690233863676607,-0.009919152200275899,0.010000000036369312,-39.999999968410016,-1.698041767437306,-1.698041767437306,-97.2906267110925,0.010011216046967229,0.9854798847788642,1.0596189257369654e-09,0.9921556114374827,0.007844388562517346,0.015627242693114954,1.2351437733470293e-05
1027468933.9437541,-0.9545960851021575,-0.26238581025467045,0.9899999995532149,-0.08729611196892668,-0.0013391370671183172,-0.009909929961187605,0.0099999999960087,-40.0000000034668,-1.7051135414351337,-1.7051135414351337,-97.69580951483839,0.010003820540703975,0.9900000000611752,1.1107656028881554e-09,0.9939866896607489,0.006013310339251121,0.011990460777266548,5.038839918442196e-06
1029431000.6540222,-0.9521998103664714,-0.2661998518228777,0.9887096843727516,-0.09862423851065774,-0.0019288957165754126,-0.01301284409309522,0.0131550275589459,-37.61816475516025,-1.7179549132997547,-1.7179549132997547,-98.43156592583921,0.013157761456333713,0.9822352562021908,1.2909827859787134e-09,0.9918094126143928,0.008190587385607184,0.01631408904949346,1.7636659898630892e-05
1031393067.3642904,-0.9562810029950592,-0.23409216210174305,0.98451637723641,-0.13554110124872837,-0.0016320399769036307,-0.010350838831535657,0.010478712659608435,-39.593841368361836,-1.7271811146419656,-1.7271811146419656,-98.96018832368583,0.010475592886180943,0.9842711191107543,1.262975919887302e-09,0.9885151561609542,0.0114848438390458,0.022837786040084733,1.2059802391860453e-05
1033355134.0745585,-0.9544508370540319,-0.26291367380384856,0.9900000001142316,-0.08729610704677623,-0.002767899844062919,-0.014761441669907832,0.015018702664373341,-36.46735161299902,-1.756152753712737,-1.756152753712737,-100.62014096801734,0.015003745405673325,0.9899999995543046,9.900470790678218e-10,0.996691467813825,0.003308532186174995,0.0066061179871226405,1.5369932477385825e-05
1035317200.7848266,-0.960008124516271,-0.24183548248833311,0.9899999998624307,-0.08729610925598326,-0.002257218303213547,-0.012214098021774578,0.0124209188449921,-38.116925515476254,-1.7535388996570964,-1.7535388996570964,-100.47037816236599,0.012423253644967557,0.9886253627291676,1.3088063306033236e-09,0.9945559206520352,0.005444079347964759,0.010858520695983052,3.479424652213935e-05
1037279267.4950948,-0.9651091567346072,-0.22059989973843042,0.990000000089692,-0.08729610726207744,-0.002038352869764891,-0.011439467833673458,0.01161965174776458,-38.69613775955162,-1.747131627703687,-1.747131627703687,-100.10326852124308,0.011616181053154826,0.9899999997806094,1.4084733144428262e-09,0.9946187801647878,0.005381219835212225,0.010733482143509507,5.0121395800671204e-06
1039241334.205363,-0.9587967228020874,-0.239723748108,0.9883109991611804,-0.10212742471788405,-0.0025338705497540167,-0.009673649780063825,0.010000000001511982,-39.99999999868671,-1.8269763055950554,-1.8269763055950554,-104.678031581,0.010007069612482381,0.9899999997971403,1.2451680302948757e-09,0.9940996213691102,0.005900378630889769,0.011765942793791504,8.873331312120667e-06
1041203400.9156312,-0.9562056561370293,-0.25645807176132507,0.9899999996969615,-0.08729611070774806,-0.0025258726991100465,-0.009675741165599659,0.009999999999789465,-40.000000000182865,-1.8261496284376006,-1.8261496284376006,-104.63066646885798,0.009993081648414257,0.989999999448355,1.2745777022449064e-09,0.994940142590226,0.0050598574097739935,0.010094112662541406,1.3008569109602179e-05
1043165467.6258993,-0.96468167695275,-0.22246181812939983,0.989999999178691,-0.08729611525485986,-0.0022660267637223197,-0.009739872832154347,0.01000000000402221,-39.999999996506354,-1.799384528546171,-1.799384528546171,-103.09713920683299,0.009988858421593591,0.9835028009160136,1.2511971643475396e-09,0.9922305340789728,0.00776946592102723,0.015478567241356333,1.1601208889782424e-05
1045127534.3361675,-0.9575914233063444,-0.22649091856368164,0.9840119258330615,-0.1399927612084355,-0.002609031307103035,-0.00965364986042915,0.009999999999460376,-40.00000000046871,-1.8347539445193715,-1.8347539445193715,-105.12365746593998,0.009997119097144519,0.98559383214002,1.2093518280694254e-09,0.9896459916520808,0.010354008347919219,0.02060081120696958,2.1779013948685522e-05
1047089601.0464356,-0.938889818468035,-0.29370141214875006,0.9837553612159425,-0.14225775664425042,-0.008176468221849222,-0.024169998525031267,0.025515553321120113,-31.86390018551127,-1.8970012065716122,-1.8970012065716122,-108.69016286777823,0.025500383737299934,0.983755360822867,1.248295365586247e-09,0.9989999988689325,0.0010000011310674628,0.00199900225987247,1.6237558391811184e-05
1049051667.7567037,-0.9665338429087207,-0.21427162495153002,0.9899999993673074,-0.08729611360000965,-0.0026186663203359144,-0.009651042094240002,0.010000001340102612,-39.99999883600174,-1.835752112429212,-1.835752112429212,-105.18084827441925,0.0100088961980652,0.9899999995405867,1.0541200997030017e-09,0.9946978413853717,0.0053021586146283495,0.010576204343282235,3.06001480346772e-05
1051013734.4669719,-0.9638041246196488,-0.21388579783086972,0.9872515004534533,-0.11144395075143426,-0.004110144293594666,-0.01341493645785221,0.014030459945503612,-37.05856183457174,-1.8681011891403638,-1.8681011891403638,-107.03431384111319,0.014065904015729533,0.9864707238217741,1.076841347630261e-09,0.9939253118484811,0.006074688151518903,0.012112474466899663,3.573972796118104e-05
1052975801.17724,-0.958973490173195,-0.2441676412001261,0.9895695993027436,-0.09107310383307496,-0.004609680621505612,-0.012406307429296935,0.013235014902239918,-37.56551130718931,-1.9265472076789654,-1.9265472076789654,-110.38302403271842,0.013250034919524634,0.9900000003290108,1.3366808407929777e-09,0.9973759954140591,0.00262400458594092,0.005241123771814794,1.5063568789699766e-05
1054937867.8875082,-0.957557752009196,-0.2513625899548573,0.9900000000311711,-0.0872961077755185,-0.004820189917451199,-0.013727312081952854,0.014548997485587349,-36.743338623564895,-1.908485178849656,-1.908485178849656,-109.34814601135537,0.014555118970977504,0.9881711461680146,1.1614637450054049e-09,0.9973180523010953,0.0026819476989047297,0.005356702554350064,4.193143975931892e-05
1056899934.5977763,-0.9578039599900333,-0.25042279123408884,0.9900000000717482,-0.08729610741951024,-0.004905557898057047,-0.013127668489353346,0.014014284792937192,-37.06858122372717,-1.9284099525451286,-1.9284099525451286,-110.48975145185923,0.014006835087225573,0.9885091378610527,1.1759382817296458e-09,0.9974670607358256,0.0025329392641744164,0.005059462747032813,8.095694728894506e-06
1058862001.3080444,-0.9666533742008557,-0.20985621282653624,0.9891705494583812,-0.09457644706627061,-0.0036514621772126923,-0.009309501813249473,0.010000000002125503,-39.99999999815381,-1.9445861878348834,-1.9445861878348834,-111.41658146237276,0.010020402192865973,0.9899999998087159,1.376114030432231e-09,0.9952004713907073,0.004799528609292669,0.009576021743713525,3.612774233722459e-05
1060824068.0183126,-0.9571066990571455,-0.24032254039225,0.9868171850959275,-0.11526592042459521,-0.003870241806725019,-0.00982342908514591,0.0105583393880578,-39.52808764232202,-1.9461029360465247,-1.9461029360465247,-111.50348473348383,0.010564880029155859,0.9865027952028411,1.5487028907553616e-09,0.9928170278913102,0.007182972108689789,0.01431434912906504,6.545983653436297e-06
1062786134.7285807,-0.9469458243348791,-0.2825733218101715,0.988207506763685,-0.10303702768001241,-0.00404302586994741,-0.009146252880023246,0.009999999996519876,-40.0000000030228,-1.9870125166736317,-1.9870125166736317,-113.84743104506721,0.010001293511398592,0.9869639198049063,1.1660968562375545e-09,0.9941251380574979,0.005874861942502085,0.011715209882160828,2.1421767765073707e-06
1064748201.438849,-0.9662038547781346,-0.21575474892938953,0.9900000003402579,-0.08729610506370596,-0.004039307928193993,-0.009147895670138175,0.01000000018652518,-39.999999837986294,-1.986606045885844,-1.986606045885844,-113.82414198443163,0.01000347508746835,0.9899999997823806,1.1165702771563307e-09,0.9959499510836677,0.004050048916332316,0.0080836949364399,9.406358764002343e-06
1066710268.1491171,-0.958179447424514,-0.24488410544356254,0.9889772892061987,-0.09627362782739764,-0.006681670306675085,-0.014450905265578537,0.015920847373234535,-35.960676420753174,-2.0038896963176382,-2.0038896963176382,-114.8144222087529,0.015891477832189027,0.9861736286805913,1.2676685092498971e-09,0.9977940800623119,0.00220591993768815,0.004406973792604984,3.531912765960196e-05
1068672334.8593853,-0.9551301464229582,-0.23296809656938203,0.9831315937478068,-0.14776694521861708,-0.004614993544503399,-0.008871405448061486,0.010000000001985154,-39.99999999827572,-2.0504808816830913,-2.0504808816830913,-117.48390049270505,0.010002329474353248,0.9819964695323664,1.0660706679457676e-09,0.9891882897282886,0.01081171027171135,0.021506527464423435,3.2896461911761373e-06
1070634401.5696534,-0.9599495789659438,-0.23951317299019487,0.9893784686320618,-0.09275090422011156,-0.004436730554935736,-0.008961887192605815,0.010000000003504626,-39.99999999695592,-2.0304893908503936,-2.0304893908503936,-116.33847244181699,0.009997839457180472,0.9891676359322809,1.1109716764616065e-09,0.9957470223963751,0.0042529776036248634,0.008487867388752422,3.7997073635145585e-06
1072596468.2799215,-0.9596834184995435,-0.2394156346009102,0.9890966129930516,-0.09522570616592102,-0.004555198316785046,-0.008902256605721857,0.010000000218967986,-39.99999980980683,-2.0437523750382316,-2.0437523750382316,-117.09838545952886,0.010007752234525312,0.9899999997599895,1.1474293465791795e-09,0.9961618748666929,0.0038381251333070576,0.007661519062075338,1.4496233775029398e-05
1074558534.9901896,-0.9654383300680149,-0.21915481041875357,0.9900000000475744,-0.08729610763160188,-0.005120195965237145,-0.010049875406663335,0.011279024887457571,-38.95456890120572,-2.0419979921783886,-2.0419979921783886,-116.99786672600976,0.011279987859665476,0.9900000003771094,1.2006595356939046e-09,0.9972640668524634,0.0027359331475366178,0.005464380964885041,2.464181481507282e-06
1076520601.7004578,-0.9585982878968325,-0.2473647545254237,0.9899999996667485,-0.0872961109728261,-0.004844398501661613,-0.008748245894833206,0.010000000153968364,-39.99999986626478,-2.0765190727365845,-2.0765190727365845,-118.9757789462255,0.009988380054435253,0.98999999956649,1.3149919951905155e-09,0.9969087083463251,0.0030912916536749435,0.006173027223261955,1.1897499526087384e-05
1078482668.410726,-0.9633523893644272,-0.2108793333074732,0.9861632315749534,-0.12102387754532658,-0.009357001498534915,-0.015636030713311516,0.018221935503979967,-34.788109897365594,-2.1100573964709675,-2.1100573964709675,-120.89738334814908,0.01821380223762028,0.9867595112474072,1.343052271616262e-09,0.9990000680699924,0.0009999319300075804,0.001998863996150153,2.193972668443317e-05
1080444735.120994,-0.9722733556407617,-0.18398029290922394,0.9895272741404911,-0.09144461842968422,-0.007276154172947354,-0.012282471183849389,0.014275906903961997,-36.907925856562656,-2.105609949956853,-2.105609949956853,-120.64256343328016,0.014261708258887631,0.9894720756267733,1.5212099295006338e-09,0.9990000002143926,0.0009999997856073861,0.0019989995716434552,1.5271342615512763e-05
1082406801.8312624,-0.9660493165947676,-0.20653467828197147,0.9878804864082775,-0.10591186195076825,-0.008524571642221125,-0.013207183284761309,0.015719351513362092,-36.071307486514435,-2.143966043297369,-2.143966043297369,-122.84020570030157,0.0157220209722359,0.9878807182154702,1.5759937097961068e-09,0.9989999818766722,0.0010000181233278393,0.0019990362104089104,2.5630014591610445e-05
1084368868.5415304,-0.9605011860527776,-0.23497734173067822,0.9888260107499238,-0.09760236256902906,-0.009290153660884015,-0.014262531654590493,0.017021361997238426,-35.38011383894277,-2.148132482955745,-2.148132482955745,-123.07892510832244,0.016995125266275758,0.9837423957048048,1.4078716329601238e-09,0.9989999942615174,0.001000005738482579,0.001999011465488037,2.6484601761928244e-05
1086330935.2517986,-0.9608443580113826,-0.2214987512665757,0.9860444093117501,-0.12207049864604831,-0.008622397889089691,-0.012758445511875258,0.015398820644363265,-36.25025078750229,-2.165108317236598,-2.165108317236598,-124.05156876632881,0.015395734471203537,0.9890861174092426,1.3767633787331647e-09,0.9989999972230966,0.0010000027769033748,0.0019990055482528926,9.609863807076834e-06
1088293001.9620667,-0.9631518204937664,-0.2160310833350866,0.9870819916741402,-0.11293542578266391,-0.009915121360587491,-0.014327679840400467,0.01742389282577795,-35.17709617843771,-2.1761502766013097,-2.1761502766013097,-124.68422643548175,0.017384476884279028,0.9850363680703612,1.3235446581830319e-09,0.9990000010424552,0.0009999989575447676,0.0019989979171741424,4.341340739811942e-05
1090255068.672335,-0.963003705003016,-0.2296167759638468,0.989999999825034,-0.08729610958408837,-0.00593199283698138,-0.008050556576550193,0.010000000010511698,-39.999999990869654,-2.2058233665426856,-2.2058233665426856,-126.38436925423468,0.010008439124557022,0.9899999999056989,1.3333035985492355e-09,0.9976604314674109,0.002339568532589098,0.0046736634842591725,1.1765370175655149e-05
1092217135.382603,-0.9647121963032174,-0.21562824667424438,0.9885166475381112,-0.1003202473287025,-0.007052456745558366,-0.009259312491567693,0.011639244561588746,-38.68150412805286,-2.2217187672689453,-2.2217187672689453,-127.29510862951855,0.011653313569637452,0.9900000000000131,1.2959191698971265e-09,0.9982231263606081,0.0017768736393919404,0.0035505899988536828,1.4289075482904222e-05
1094179202.0928712,-0.9676449664027091,-0.20424448888333324,0.9889654150897866,-0.09637791524126611,-0.00604387312588744,-0.007966906815277707,0.010000000328257133,-39.99999971487948,-2.2197929042227664,-2.2197929042227664,-127.1847648050523,0.010013838467879791,0.9893873355084445,1.1954358417473302e-09,0.9967612242561041,0.003238775743895861,0.006467061819472458,1.7393025873944877e-05
1096141268.8031392,-0.9470902401629879,-0.2626083403178834,0.9828240246435266,-0.15048471900014143,-0.01286200514046834,-0.01570518149297372,0.020299849801431496,-33.850143508386786,-2.2569952173812915,-2.2569952173812915,-129.3163003371598,0.02030568793549174,0.9817538301459172,1.3181071102351412e-09,0.9989997363869778,0.0010002636130221898,0.0019995266987485718,1.0130972253451846e-05
1098103335.5134075,-0.9671103518407154,-0.21165435819636247,0.989999999990397,-0.08729610813325477,-0.007642752732911887,-0.009080039631744728,0.011868394543934199,-38.51216049515688,-2.270457408625598,-2.270457408625598,-130.08762707845653,0.011877948266683137,0.9786410019627817,1.2131212793328058e-09,0.9953565825588009,0.004643417441199116,0.009265273556865052,1.3674939305805096e-05
